 (000.000000)  can0  064   [8]  67 08 00 01 01 01 00 00
 (000.002405)  can0  064   [8]  68 08 00 01 01 01 00 00
 (000.004922)  can0  064   [8]  6D 01 00 00 00 00 07 00
 (000.006638)  can0  067   [8]  0C 02 B0 0C 01 06 00 00
 (000.006657)  can0  067   [8]  0B 00 00 00 00 00 00 00
 (000.006716)  can0  068   [8]  0C 02 B0 0C 01 06 00 00
 (000.006835)  can0  067   [8]  12 80 66 01 01 01 00 00
 (000.007047)  can0  068   [8]  0B 00 00 00 00 00 00 00
 (000.007051)  can0  064   [8]  6E 01 00 00 00 00 07 00
 (000.007161)  can0  068   [8]  12 80 66 01 01 01 00 00
 (000.026637)  can0  067   [8]  0C 02 A1 D2 00 00 10 04
 (000.026781)  can0  068   [8]  0C 02 A1 D2 00 00 10 04
 (000.066746)  can0  067   [8]  00 9D 90 C3 BB 00 00 00
 (000.066767)  can0  068   [8]  00 8F E9 5B BB 00 00 00
 (000.086746)  can0  067   [8]  05 00 00 01 00 00 01 00
 (000.086768)  can0  068   [8]  05 00 00 01 00 00 01 00
 (000.126740)  can0  067   [8]  0B 00 00 00 00 00 00 00
 (000.126760)  can0  068   [8]  0B 00 00 00 00 00 00 00
 (000.186711)  can0  067   [8]  00 9D 90 C3 BB 00 00 00
 (000.186733)  can0  068   [8]  00 6F 57 5A BB 00 00 00
 (000.206721)  can0  067   [8]  05 00 00 01 00 00 01 00
 (000.206742)  can0  068   [8]  05 00 00 01 00 00 01 00
 (000.246754)  can0  067   [8]  0B 00 00 00 00 00 00 00
 (000.246779)  can0  068   [8]  0B 00 00 00 00 00 00 00
 (000.306752)  can0  067   [8]  00 8D C7 C2 BB 00 00 00
 (000.306777)  can0  068   [8]  00 4E C5 58 BB 00 00 00
 (000.326731)  can0  067   [8]  05 00 00 01 00 00 01 00
 (000.326754)  can0  068   [8]  05 00 00 01 00 00 01 00
 (000.366728)  can0  067   [8]  0B 00 00 00 00 00 00 00
 (000.366752)  can0  068   [8]  0B 00 00 00 00 00 00 00
 (000.426739)  can0  067   [8]  00 9D 90 C3 BB 00 00 00
 (000.426759)  can0  068   [8]  00 4E C5 58 BB 00 00 00
 (000.446723)  can0  067   [8]  05 00 00 01 00 00 01 00
 (000.446745)  can0  067   [8]  11 00 00 00 00 00 00 00
 (000.446747)  can0  068   [8]  05 00 00 01 00 00 01 00
 (000.446912)  can0  068   [8]  11 00 00 00 00 00 00 00
 (000.486756)  can0  067   [8]  0B 00 00 00 00 00 00 00
 (000.486779)  can0  068   [8]  0B 00 00 00 00 00 00 00
 (000.546728)  can0  067   [8]  00 8D C7 C2 BB 00 00 00
 (000.546753)  can0  068   [8]  00 6F 57 5A BB 00 00 00
 (000.566735)  can0  067   [8]  05 00 00 01 00 00 01 00
 (000.566759)  can0  068   [8]  05 00 00 01 00 00 01 00
 (000.606719)  can0  067   [8]  0B 00 00 00 00 00 00 00
 (000.606744)  can0  068   [8]  0B 00 00 00 00 00 00 00
 (000.666758)  can0  067   [8]  00 7C FE C1 BB 00 00 00
 (000.666780)  can0  068   [8]  00 6F 57 5A BB 00 00 00
 (000.686737)  can0  067   [8]  05 00 00 01 00 00 01 00
 (000.686760)  can0  068   [8]  05 00 00 01 00 00 01 00
 (000.726727)  can0  067   [8]  0B 00 00 00 00 00 00 00
 (000.726753)  can0  068   [8]  0B 00 00 00 00 00 00 00
 (000.786759)  can0  067   [8]  00 8D C7 C2 BB 00 00 00
 (000.786780)  can0  068   [8]  00 6F 57 5A BB 00 00 00
 (000.806721)  can0  067   [8]  05 00 00 01 00 00 01 00
 (000.806744)  can0  068   [8]  05 00 00 01 00 00 01 00
 (000.846764)  can0  067   [8]  0B 00 00 00 00 00 00 00
 (000.846789)  can0  068   [8]  0B 00 00 00 00 00 00 00
 (000.906737)  can0  067   [8]  00 8D C7 C2 BB 00 00 00
 (000.906760)  can0  068   [8]  00 6F 57 5A BB 00 00 00
 (000.926737)  can0  067   [8]  05 00 00 01 00 00 01 00
 (000.926760)  can0  068   [8]  05 00 00 01 00 00 01 00
 (000.966745)  can0  067   [8]  0B 00 00 00 00 00 00 00
 (000.966767)  can0  068   [8]  0B 00 00 00 00 00 00 00
 (001.006771)  can0  067   [8]  12 80 66 01 01 01 00 00
 (001.006795)  can0  068   [8]  12 80 66 01 01 01 00 00
 (001.026737)  can0  067   [8]  00 9D 90 C3 BB 00 00 00
 (001.026760)  can0  068   [8]  00 6F 57 5A BB 00 00 00
 (001.046767)  can0  067   [8]  05 00 00 01 00 00 01 00
 (001.046791)  can0  068   [8]  05 00 00 01 00 00 01 00
 (001.086654)  can0  067   [8]  0B 00 00 00 00 00 00 00
 (001.086779)  can0  068   [8]  0B 00 00 00 00 00 00 00
 (001.146725)  can0  067   [8]  00 8D C7 C2 BB 00 00 00
 (001.146752)  can0  068   [8]  00 6F 57 5A BB 00 00 00
 (001.166730)  can0  067   [8]  05 00 00 01 00 00 01 00
 (001.166757)  can0  068   [8]  05 00 00 01 00 00 01 00
 (001.206741)  can0  067   [8]  0B 00 00 00 00 00 00 00
 (001.206761)  can0  068   [8]  0B 00 00 00 00 00 00 00
 (001.266701)  can0  067   [8]  00 9D 90 C3 BB 00 00 00
 (001.266722)  can0  068   [8]  00 6F 57 5A BB 00 00 00
 (001.286675)  can0  067   [8]  05 00 00 01 00 00 01 00
 (001.286701)  can0  068   [8]  05 00 00 01 00 00 01 00
 (001.326631)  can0  067   [8]  0B 00 00 00 00 00 00 00
 (001.326819)  can0  068   [8]  0B 00 00 00 00 00 00 00
 (001.386748)  can0  067   [8]  00 AD 59 C4 BB 00 00 00
 (001.386772)  can0  068   [8]  00 6F 57 5A BB 00 00 00
 (001.406718)  can0  067   [8]  05 00 00 01 00 00 01 00
 (001.406741)  can0  068   [8]  05 00 00 01 00 00 01 00
 (001.446724)  can0  067   [8]  0B 00 00 00 00 00 00 00
 (001.446743)  can0  067   [8]  11 00 00 00 00 00 00 00
 (001.446745)  can0  068   [8]  0B 00 00 00 00 00 00 00
 (001.446878)  can0  068   [8]  11 00 00 00 00 00 00 00
 (001.506755)  can0  067   [8]  00 AD 59 C4 BB 00 00 00
 (001.506773)  can0  068   [8]  00 6F 57 5A BB 00 00 00
 (001.526682)  can0  067   [8]  05 00 00 01 00 00 01 00
 (001.526786)  can0  068   [8]  05 00 00 01 00 00 01 00
 (001.566716)  can0  067   [8]  0B 00 00 00 00 00 00 00
 (001.566737)  can0  068   [8]  0B 00 00 00 00 00 00 00
 (001.626736)  can0  067   [8]  00 9D 90 C3 BB 00 00 00
 (001.626760)  can0  068   [8]  00 6F 57 5A BB 00 00 00
 (001.646709)  can0  067   [8]  05 00 00 01 00 00 01 00
 (001.646730)  can0  068   [8]  05 00 00 01 00 00 01 00
 (001.686756)  can0  067   [8]  0B 00 00 00 00 00 00 00
 (001.686782)  can0  068   [8]  0B 00 00 00 00 00 00 00
 (001.746686)  can0  067   [8]  00 9D 90 C3 BB 00 00 00
 (001.746720)  can0  068   [8]  00 6F 57 5A BB 00 00 00
 (001.766729)  can0  067   [8]  05 00 00 01 00 00 01 00
 (001.766750)  can0  068   [8]  05 00 00 01 00 00 01 00
 (001.806735)  can0  067   [8]  0B 00 00 00 00 00 00 00
 (001.806756)  can0  068   [8]  0B 00 00 00 00 00 00 00
 (001.866688)  can0  067   [8]  00 9D 90 C3 BB 00 00 00
 (001.866709)  can0  068   [8]  00 6F 57 5A BB 00 00 00
 (001.886711)  can0  067   [8]  05 00 00 01 00 00 01 00
 (001.886733)  can0  068   [8]  05 00 00 01 00 00 01 00
 (001.926704)  can0  067   [8]  0B 00 00 00 00 00 00 00
 (001.926722)  can0  068   [8]  0B 00 00 00 00 00 00 00
 (001.986697)  can0  067   [8]  00 AD 59 C4 BB 00 00 00
 (001.986717)  can0  068   [8]  00 6F 57 5A BB 00 00 00
 (002.006725)  can0  067   [8]  05 00 00 01 00 00 01 00
 (002.006747)  can0  067   [8]  12 80 66 01 01 01 00 00
 (002.006748)  can0  068   [8]  05 00 00 01 00 00 01 00
 (002.006854)  can0  068   [8]  12 80 66 01 01 01 00 00
 (002.046719)  can0  067   [8]  0B 00 00 00 00 00 00 00
 (002.046741)  can0  068   [8]  0B 00 00 00 00 00 00 00
 (002.106702)  can0  067   [8]  00 8D C7 C2 BB 00 00 00
 (002.106726)  can0  068   [8]  00 4E C5 58 BB 00 00 00
 (002.126709)  can0  067   [8]  05 00 00 01 00 00 01 00
 (002.126733)  can0  068   [8]  05 00 00 01 00 00 01 00
 (002.166724)  can0  067   [8]  0B 00 00 00 00 00 00 00
 (002.166749)  can0  068   [8]  0B 00 00 00 00 00 00 00
 (002.226723)  can0  067   [8]  00 9D 90 C3 BB 00 00 00
 (002.226750)  can0  068   [8]  00 6F 57 5A BB 00 00 00
 (002.246728)  can0  067   [8]  05 00 00 01 00 00 01 00
 (002.246753)  can0  068   [8]  05 00 00 01 00 00 01 00
 (002.286727)  can0  067   [8]  0B 00 00 00 00 00 00 00
 (002.286747)  can0  068   [8]  0B 00 00 00 00 00 00 00
 (002.346783)  can0  067   [8]  00 AD 59 C4 BB 00 00 00
 (002.346809)  can0  068   [8]  00 8F E9 5B BB 00 00 00
 (002.366723)  can0  067   [8]  05 00 00 01 00 00 01 00
 (002.366746)  can0  068   [8]  05 00 00 01 00 00 01 00
 (002.406726)  can0  067   [8]  0B 00 00 00 00 00 00 00
 (002.406750)  can0  068   [8]  0B 00 00 00 00 00 00 00
 (002.446740)  can0  067   [8]  11 00 00 00 00 00 00 00
 (002.446764)  can0  068   [8]  11 00 00 00 00 00 00 00
 (002.466719)  can0  067   [8]  00 AD 59 C4 BB 00 00 00
 (002.466743)  can0  068   [8]  00 6F 57 5A BB 00 00 00
 (002.486720)  can0  067   [8]  05 00 00 01 00 00 01 00
 (002.486743)  can0  068   [8]  05 00 00 01 00 00 01 00
 (002.526714)  can0  067   [8]  0B 00 00 00 00 00 00 00
 (002.526742)  can0  068   [8]  0B 00 00 00 00 00 00 00
 (002.586431)  can0  067   [8]  00 AD 59 C4 BB 00 00 00
 (002.586792)  can0  068   [8]  00 8F E9 5B BB 00 00 00
 (002.606678)  can0  067   [8]  05 00 00 01 00 00 01 00
 (002.606701)  can0  068   [8]  05 00 00 01 00 00 01 00
 (002.646708)  can0  067   [8]  0B 00 00 00 00 00 00 00
 (002.646730)  can0  068   [8]  0B 00 00 00 00 00 00 00
 (002.706683)  can0  067   [8]  00 9D 90 C3 BB 00 00 00
 (002.706705)  can0  068   [8]  00 8F E9 5B BB 00 00 00
 (002.726711)  can0  067   [8]  05 00 00 01 00 00 01 00
 (002.726736)  can0  068   [8]  05 00 00 01 00 00 01 00
 (002.766740)  can0  067   [8]  0B 00 00 00 00 00 00 00
 (002.766766)  can0  068   [8]  0B 00 00 00 00 00 00 00
 (002.826714)  can0  067   [8]  00 AD 59 C4 BB 00 00 00
 (002.826735)  can0  068   [8]  00 4E C5 58 BB 00 00 00
 (002.846599)  can0  067   [8]  05 00 00 01 00 00 01 00
 (002.846739)  can0  068   [8]  05 00 00 01 00 00 01 00
 (002.886592)  can0  067   [8]  0B 00 00 00 00 00 00 00
 (002.886749)  can0  068   [8]  0B 00 00 00 00 00 00 00
 (002.946713)  can0  067   [8]  00 9D 90 C3 BB 00 00 00
 (002.946738)  can0  068   [8]  00 6F 57 5A BB 00 00 00
 (002.966716)  can0  067   [8]  05 00 00 01 00 00 01 00
 (002.966742)  can0  068   [8]  05 00 00 01 00 00 01 00
 (003.006734)  can0  067   [8]  0B 00 00 00 00 00 00 00
 (003.006758)  can0  067   [8]  12 80 66 01 01 01 00 00
 (003.006760)  can0  068   [8]  0B 00 00 00 00 00 00 00
 (003.006826)  can0  068   [8]  12 80 66 01 01 01 00 00
 (003.066713)  can0  067   [8]  00 BD 22 C5 BB 00 00 00
 (003.066738)  can0  068   [8]  00 6F 57 5A BB 00 00 00
 (003.086685)  can0  067   [8]  05 00 00 01 00 00 01 00
 (003.086709)  can0  068   [8]  05 00 00 01 00 00 01 00
 (003.126701)  can0  067   [8]  0B 00 00 00 00 00 00 00
 (003.126722)  can0  068   [8]  0B 00 00 00 00 00 00 00
 (003.186706)  can0  067   [8]  00 AD 59 C4 BB 00 00 00
 (003.186731)  can0  068   [8]  00 4E C5 58 BB 00 00 00
 (003.206716)  can0  067   [8]  05 00 00 01 00 00 01 00
 (003.206744)  can0  068   [8]  05 00 00 01 00 00 01 00
 (003.246705)  can0  067   [8]  0B 00 00 00 00 00 00 00
 (003.246729)  can0  068   [8]  0B 00 00 00 00 00 00 00
 (003.306734)  can0  067   [8]  00 BD 22 C5 BB 00 00 00
 (003.306761)  can0  068   [8]  00 6F 57 5A BB 00 00 00
 (003.326641)  can0  067   [8]  05 00 00 01 00 00 01 00
 (003.326723)  can0  068   [8]  05 00 00 01 00 00 01 00
 (003.366694)  can0  067   [8]  0B 00 00 00 00 00 00 00
 (003.366712)  can0  068   [8]  0B 00 00 00 00 00 00 00
 (003.426698)  can0  067   [8]  00 9D 90 C3 BB 00 00 00
 (003.426716)  can0  068   [8]  00 6F 57 5A BB 00 00 00
 (003.446729)  can0  067   [8]  05 00 00 01 00 00 01 00
 (003.446751)  can0  067   [8]  11 00 00 00 00 00 00 00
 (003.446753)  can0  068   [8]  05 00 00 01 00 00 01 00
 (003.446772)  can0  068   [8]  11 00 00 00 00 00 00 00
 (003.486697)  can0  067   [8]  0B 00 00 00 00 00 00 00
 (003.486722)  can0  068   [8]  0B 00 00 00 00 00 00 00
 (003.546699)  can0  067   [8]  00 8D C7 C2 BB 00 00 00
 (003.546723)  can0  068   [8]  00 6F 57 5A BB 00 00 00
 (003.566700)  can0  067   [8]  05 00 00 01 00 00 01 00
 (003.566724)  can0  068   [8]  05 00 00 01 00 00 01 00
 (003.606733)  can0  067   [8]  0B 00 00 00 00 00 00 00
 (003.606759)  can0  068   [8]  0B 00 00 00 00 00 00 00
 (003.666677)  can0  067   [8]  00 AD 59 C4 BB 00 00 00
 (003.666700)  can0  068   [8]  00 6F 57 5A BB 00 00 00
 (003.686697)  can0  067   [8]  05 00 00 01 00 00 01 00
 (003.686718)  can0  068   [8]  05 00 00 01 00 00 01 00
 (003.726691)  can0  067   [8]  0B 00 00 00 00 00 00 00
 (003.726710)  can0  068   [8]  0B 00 00 00 00 00 00 00
 (003.786706)  can0  067   [8]  00 8D C7 C2 BB 00 00 00
 (003.786726)  can0  068   [8]  00 6F 57 5A BB 00 00 00
 (003.806698)  can0  067   [8]  05 00 00 01 00 00 01 00
 (003.806721)  can0  068   [8]  05 00 00 01 00 00 01 00
 (003.846707)  can0  067   [8]  0B 00 00 00 00 00 00 00
 (003.846729)  can0  068   [8]  0B 00 00 00 00 00 00 00
 (003.906680)  can0  067   [8]  00 9D 90 C3 BB 00 00 00
 (003.906704)  can0  068   [8]  00 8F E9 5B BB 00 00 00
 (003.926688)  can0  067   [8]  05 00 00 01 00 00 01 00
 (003.926712)  can0  068   [8]  05 00 00 01 00 00 01 00
 (003.966702)  can0  067   [8]  0B 00 00 00 00 00 00 00
 (003.966724)  can0  068   [8]  0B 00 00 00 00 00 00 00
 (004.006672)  can0  067   [8]  12 80 66 01 01 01 00 00
 (004.006696)  can0  068   [8]  12 80 66 01 01 01 00 00
 (004.026669)  can0  067   [8]  00 AD 59 C4 BB 00 00 00
 (004.026691)  can0  068   [8]  00 4E C5 58 BB 00 00 00
 (004.046692)  can0  067   [8]  05 00 00 01 00 00 01 00
 (004.046716)  can0  068   [8]  05 00 00 01 00 00 01 00
 (004.086708)  can0  067   [8]  0B 00 00 00 00 00 00 00
 (004.086732)  can0  068   [8]  0B 00 00 00 00 00 00 00
 (004.146673)  can0  067   [8]  00 9D 90 C3 BB 00 00 00
 (004.146700)  can0  068   [8]  00 6F 57 5A BB 00 00 00
 (004.166717)  can0  067   [8]  05 00 00 01 00 00 01 00
 (004.166835)  can0  068   [8]  05 00 00 01 00 00 01 00
 (004.206678)  can0  067   [8]  0B 00 00 00 00 00 00 00
 (004.206701)  can0  068   [8]  0B 00 00 00 00 00 00 00
 (004.266746)  can0  067   [8]  00 8D C7 C2 BB 00 00 00
 (004.266773)  can0  068   [8]  00 6F 57 5A BB 00 00 00
 (004.286697)  can0  067   [8]  05 00 00 01 00 00 01 00
 (004.286721)  can0  068   [8]  05 00 00 01 00 00 01 00
 (004.326727)  can0  067   [8]  0B 00 00 00 00 00 00 00
 (004.326751)  can0  068   [8]  0B 00 00 00 00 00 00 00
 (004.386730)  can0  067   [8]  00 AD 59 C4 BB 00 00 00
 (004.386753)  can0  068   [8]  00 6F 57 5A BB 00 00 00
 (004.406672)  can0  067   [8]  05 00 00 01 00 00 01 00
 (004.406694)  can0  068   [8]  05 00 00 01 00 00 01 00
 (004.446723)  can0  067   [8]  0B 00 00 00 00 00 00 00
 (004.446747)  can0  067   [8]  11 00 00 00 00 00 00 00
 (004.446749)  can0  068   [8]  0B 00 00 00 00 00 00 00
 (004.446879)  can0  068   [8]  11 00 00 00 00 00 00 00
 (004.506724)  can0  067   [8]  00 9D 90 C3 BB 00 00 00
 (004.506746)  can0  068   [8]  00 6F 57 5A BB 00 00 00
 (004.526681)  can0  067   [8]  05 00 00 01 00 00 01 00
 (004.526701)  can0  068   [8]  05 00 00 01 00 00 01 00
 (004.566682)  can0  067   [8]  0B 00 00 00 00 00 00 00
 (004.566706)  can0  068   [8]  0B 00 00 00 00 00 00 00
 (004.626690)  can0  067   [8]  00 8D C7 C2 BB 00 00 00
 (004.626712)  can0  068   [8]  00 4E C5 58 BB 00 00 00
 (004.646657)  can0  067   [8]  05 00 00 01 00 00 01 00
 (004.646678)  can0  068   [8]  05 00 00 01 00 00 01 00
 (004.686701)  can0  067   [8]  0B 00 00 00 00 00 00 00
 (004.686721)  can0  068   [8]  0B 00 00 00 00 00 00 00
 (004.746674)  can0  067   [8]  00 BD 22 C5 BB 00 00 00
 (004.746695)  can0  068   [8]  00 6F 57 5A BB 00 00 00
 (004.766686)  can0  067   [8]  05 00 00 01 00 00 01 00
 (004.766708)  can0  068   [8]  05 00 00 01 00 00 01 00
 (004.806700)  can0  067   [8]  0B 00 00 00 00 00 00 00
 (004.806725)  can0  068   [8]  0B 00 00 00 00 00 00 00
 (004.866576)  can0  067   [8]  00 BD 22 C5 BB 00 00 00
 (004.866752)  can0  068   [8]  00 6F 57 5A BB 00 00 00
 (004.886705)  can0  067   [8]  05 00 00 01 00 00 01 00
 (004.886732)  can0  068   [8]  05 00 00 01 00 00 01 00
 (004.926715)  can0  067   [8]  0B 00 00 00 00 00 00 00
 (004.926742)  can0  068   [8]  0B 00 00 00 00 00 00 00
 (004.986640)  can0  067   [8]  00 9D 90 C3 BB 00 00 00
 (004.986662)  can0  068   [8]  00 8F E9 5B BB 00 00 00
 (005.006663)  can0  067   [8]  05 00 00 01 00 00 01 00
 (005.006685)  can0  067   [8]  12 80 66 01 01 01 00 00
 (005.006687)  can0  068   [8]  05 00 00 01 00 00 01 00
 (005.006965)  can0  068   [8]  12 80 66 01 01 01 00 00
 (005.046695)  can0  067   [8]  0B 00 00 00 00 00 00 00
 (005.046719)  can0  068   [8]  0B 00 00 00 00 00 00 00
 (005.106649)  can0  067   [8]  00 9D 90 C3 BB 00 00 00
 (005.106668)  can0  068   [8]  00 6F 57 5A BB 00 00 00
 (005.126635)  can0  067   [8]  05 00 00 01 00 00 01 00
 (005.126656)  can0  068   [8]  05 00 00 01 00 00 01 00
 (005.166663)  can0  067   [8]  0B 00 00 00 00 00 00 00
 (005.166687)  can0  068   [8]  0B 00 00 00 00 00 00 00
 (005.226649)  can0  067   [8]  00 9D 90 C3 BB 00 00 00
 (005.226666)  can0  068   [8]  00 8F E9 5B BB 00 00 00
 (005.246666)  can0  067   [8]  05 00 00 01 00 00 01 00
 (005.246683)  can0  068   [8]  05 00 00 01 00 00 01 00
 (005.286653)  can0  067   [8]  0B 00 00 00 00 00 00 00
 (005.286672)  can0  068   [8]  0B 00 00 00 00 00 00 00
 (005.346673)  can0  067   [8]  00 AD 59 C4 BB 00 00 00
 (005.346691)  can0  068   [8]  00 6F 57 5A BB 00 00 00
 (005.366679)  can0  067   [8]  05 00 00 01 00 00 01 00
 (005.366698)  can0  068   [8]  05 00 00 01 00 00 01 00
 (005.406672)  can0  067   [8]  0B 00 00 00 00 00 00 00
 (005.406692)  can0  068   [8]  0B 00 00 00 00 00 00 00
 (005.446675)  can0  067   [8]  11 00 00 00 00 00 00 00
 (005.446694)  can0  068   [8]  11 00 00 00 00 00 00 00
 (005.466657)  can0  067   [8]  00 AD 59 C4 BB 00 00 00
 (005.466678)  can0  068   [8]  00 4E C5 58 BB 00 00 00
 (005.486507)  can0  067   [8]  05 00 00 01 00 00 01 00
 (005.486762)  can0  068   [8]  05 00 00 01 00 00 01 00
 (005.526641)  can0  067   [8]  0B 00 00 00 00 00 00 00
 (005.526660)  can0  068   [8]  0B 00 00 00 00 00 00 00
 (005.586657)  can0  067   [8]  00 9D 90 C3 BB 00 00 00
 (005.586680)  can0  068   [8]  00 4E C5 58 BB 00 00 00
 (005.606668)  can0  067   [8]  05 00 00 01 00 00 01 00
 (005.606692)  can0  068   [8]  05 00 00 01 00 00 01 00
 (005.646670)  can0  067   [8]  0B 00 00 00 00 00 00 00
 (005.646692)  can0  068   [8]  0B 00 00 00 00 00 00 00
 (005.706673)  can0  067   [8]  00 9D 90 C3 BB 00 00 00
 (005.706697)  can0  068   [8]  00 6F 57 5A BB 00 00 00
 (005.726667)  can0  067   [8]  05 00 00 01 00 00 01 00
 (005.726691)  can0  068   [8]  05 00 00 01 00 00 01 00
 (005.766676)  can0  067   [8]  0B 00 00 00 00 00 00 00
 (005.766697)  can0  068   [8]  0B 00 00 00 00 00 00 00
 (005.826683)  can0  067   [8]  00 9D 90 C3 BB 00 00 00
 (005.826706)  can0  068   [8]  00 4E C5 58 BB 00 00 00
 (005.846698)  can0  067   [8]  05 00 00 01 00 00 01 00
 (005.846724)  can0  068   [8]  05 00 00 01 00 00 01 00
 (005.886694)  can0  067   [8]  0B 00 00 00 00 00 00 00
 (005.886718)  can0  068   [8]  0B 00 00 00 00 00 00 00
 (005.946666)  can0  067   [8]  00 BD 22 C5 BB 00 00 00
 (005.946688)  can0  068   [8]  00 6F 57 5A BB 00 00 00
 (005.966707)  can0  067   [8]  05 00 00 01 00 00 01 00
 (005.966731)  can0  068   [8]  05 00 00 01 00 00 01 00
 (006.006710)  can0  067   [8]  0B 00 00 00 00 00 00 00
 (006.006731)  can0  067   [8]  12 80 66 01 01 01 00 00
 (006.006733)  can0  068   [8]  0B 00 00 00 00 00 00 00
 (006.006884)  can0  068   [8]  12 80 66 01 01 01 00 00
 (006.066661)  can0  067   [8]  00 AD 59 C4 BB 00 00 00
 (006.066680)  can0  068   [8]  00 6F 57 5A BB 00 00 00
 (006.086653)  can0  067   [8]  05 00 00 01 00 00 01 00
 (006.086675)  can0  068   [8]  05 00 00 01 00 00 01 00
 (006.126661)  can0  067   [8]  0B 00 00 00 00 00 00 00
 (006.126686)  can0  068   [8]  0B 00 00 00 00 00 00 00
 (006.186718)  can0  067   [8]  00 BD 22 C5 BB 00 00 00
 (006.186745)  can0  068   [8]  00 6F 57 5A BB 00 00 00
 (006.206710)  can0  067   [8]  05 00 00 01 00 00 01 00
 (006.206737)  can0  068   [8]  05 00 00 01 00 00 01 00
 (006.246720)  can0  067   [8]  0B 00 00 00 00 00 00 00
 (006.246745)  can0  068   [8]  0B 00 00 00 00 00 00 00
 (006.306680)  can0  067   [8]  00 9D 90 C3 BB 00 00 00
 (006.306704)  can0  068   [8]  00 4E C5 58 BB 00 00 00
 (006.326630)  can0  067   [8]  05 00 00 01 00 00 01 00
 (006.326653)  can0  068   [8]  05 00 00 01 00 00 01 00
 (006.366561)  can0  067   [8]  0B 00 00 00 00 00 00 00
 (006.366634)  can0  068   [8]  0B 00 00 00 00 00 00 00
 (006.426669)  can0  067   [8]  00 9D 90 C3 BB 00 00 00
 (006.426691)  can0  068   [8]  00 6F 57 5A BB 00 00 00
 (006.446665)  can0  067   [8]  05 00 00 01 00 00 01 00
 (006.446688)  can0  067   [8]  11 00 00 00 00 00 00 00
 (006.446690)  can0  068   [8]  05 00 00 01 00 00 01 00
 (006.446829)  can0  068   [8]  11 00 00 00 00 00 00 00
 (006.486659)  can0  067   [8]  0B 00 00 00 00 00 00 00
 (006.486683)  can0  068   [8]  0B 00 00 00 00 00 00 00
 (006.546675)  can0  067   [8]  00 BD 22 C5 BB 00 00 00
 (006.546698)  can0  068   [8]  00 6F 57 5A BB 00 00 00
 (006.566679)  can0  067   [8]  05 00 00 01 00 00 01 00
 (006.566703)  can0  068   [8]  05 00 00 01 00 00 01 00
 (006.606680)  can0  067   [8]  0B 00 00 00 00 00 00 00
 (006.606698)  can0  068   [8]  0B 00 00 00 00 00 00 00
 (006.666652)  can0  067   [8]  00 8D C7 C2 BB 00 00 00
 (006.666670)  can0  068   [8]  00 8F E9 5B BB 00 00 00
 (006.686645)  can0  067   [8]  05 00 00 01 00 00 01 00
 (006.686666)  can0  068   [8]  05 00 00 01 00 00 01 00
 (006.726645)  can0  067   [8]  0B 00 00 00 00 00 00 00
 (006.726665)  can0  068   [8]  0B 00 00 00 00 00 00 00
 (006.786663)  can0  067   [8]  00 9D 90 C3 BB 00 00 00
 (006.786684)  can0  068   [8]  00 6F 57 5A BB 00 00 00
 (006.806652)  can0  067   [8]  05 00 00 01 00 00 01 00
 (006.806673)  can0  068   [8]  05 00 00 01 00 00 01 00
 (006.846659)  can0  067   [8]  0B 00 00 00 00 00 00 00
 (006.846683)  can0  068   [8]  0B 00 00 00 00 00 00 00
 (006.906664)  can0  067   [8]  00 9D 90 C3 BB 00 00 00
 (006.906689)  can0  068   [8]  00 6F 57 5A BB 00 00 00
 (006.926676)  can0  067   [8]  05 00 00 01 00 00 01 00
 (006.926700)  can0  068   [8]  05 00 00 01 00 00 01 00
 (006.966529)  can0  067   [8]  0B 00 00 00 00 00 00 00
 (006.966706)  can0  068   [8]  0B 00 00 00 00 00 00 00
 (007.006672)  can0  067   [8]  12 80 66 01 01 01 00 00
 (007.006692)  can0  068   [8]  12 80 66 01 01 01 00 00
 (007.026653)  can0  067   [8]  00 AD 59 C4 BB 00 00 00
 (007.026673)  can0  068   [8]  00 4E C5 58 BB 00 00 00
 (007.046672)  can0  067   [8]  05 00 00 01 00 00 01 00
 (007.046695)  can0  068   [8]  05 00 00 01 00 00 01 00
 (007.086675)  can0  067   [8]  0B 00 00 00 00 00 00 00
 (007.086699)  can0  068   [8]  0B 00 00 00 00 00 00 00
 (007.146712)  can0  067   [8]  00 9D 90 C3 BB 00 00 00
 (007.146739)  can0  068   [8]  00 6F 57 5A BB 00 00 00
 (007.166680)  can0  067   [8]  05 00 00 01 00 00 01 00
 (007.166704)  can0  068   [8]  05 00 00 01 00 00 01 00
 (007.206703)  can0  067   [8]  0B 00 00 00 00 00 00 00
 (007.206730)  can0  068   [8]  0B 00 00 00 00 00 00 00
 (007.266648)  can0  067   [8]  00 AD 59 C4 BB 00 00 00
 (007.266683)  can0  068   [8]  00 6F 57 5A BB 00 00 00
 (007.286688)  can0  067   [8]  05 00 00 01 00 00 01 00
 (007.286712)  can0  068   [8]  05 00 00 01 00 00 01 00
 (007.326553)  can0  067   [8]  0B 00 00 00 00 00 00 00
 (007.326666)  can0  068   [8]  0B 00 00 00 00 00 00 00
 (007.386681)  can0  067   [8]  00 AD 59 C4 BB 00 00 00
 (007.386699)  can0  068   [8]  00 4E C5 58 BB 00 00 00
 (007.406655)  can0  067   [8]  05 00 00 01 00 00 01 00
 (007.406675)  can0  068   [8]  05 00 00 01 00 00 01 00
 (007.446689)  can0  067   [8]  0B 00 00 00 00 00 00 00
 (007.446714)  can0  067   [8]  11 00 00 00 00 00 00 00
 (007.446716)  can0  068   [8]  0B 00 00 00 00 00 00 00
 (007.446866)  can0  068   [8]  11 00 00 00 00 00 00 00
 (007.506673)  can0  067   [8]  00 6C 35 C1 BB 00 00 00
 (007.506697)  can0  068   [8]  00 6F 57 5A BB 00 00 00
 (007.526641)  can0  067   [8]  05 00 00 01 00 00 01 00
 (007.526666)  can0  068   [8]  05 00 00 01 00 00 01 00
 (007.566664)  can0  067   [8]  0B 00 00 00 00 00 00 00
 (007.566685)  can0  068   [8]  0B 00 00 00 00 00 00 00
 (007.626692)  can0  067   [8]  00 8D C7 C2 BB 00 00 00
 (007.626716)  can0  068   [8]  00 6F 57 5A BB 00 00 00
 (007.646673)  can0  067   [8]  05 00 00 01 00 00 01 00
 (007.646697)  can0  068   [8]  05 00 00 01 00 00 01 00
 (007.686675)  can0  067   [8]  0B 00 00 00 00 00 00 00
 (007.686698)  can0  068   [8]  0B 00 00 00 00 00 00 00
 (007.746707)  can0  067   [8]  00 8D C7 C2 BB 00 00 00
 (007.746735)  can0  068   [8]  00 6F 57 5A BB 00 00 00
 (007.766657)  can0  067   [8]  05 00 00 01 00 00 01 00
 (007.766681)  can0  068   [8]  05 00 00 01 00 00 01 00
 (007.806661)  can0  067   [8]  0B 00 00 00 00 00 00 00
 (007.806682)  can0  068   [8]  0B 00 00 00 00 00 00 00
 (007.866645)  can0  067   [8]  00 9D 90 C3 BB 00 00 00
 (007.866669)  can0  068   [8]  00 6F 57 5A BB 00 00 00
 (007.886537)  can0  067   [8]  05 00 00 01 00 00 01 00
 (007.886687)  can0  068   [8]  05 00 00 01 00 00 01 00
 (007.926688)  can0  067   [8]  0B 00 00 00 00 00 00 00
 (007.926713)  can0  068   [8]  0B 00 00 00 00 00 00 00
 (007.986623)  can0  067   [8]  00 9D 90 C3 BB 00 00 00
 (007.986643)  can0  068   [8]  00 6F 57 5A BB 00 00 00
 (008.006650)  can0  067   [8]  05 00 00 01 00 00 01 00
 (008.006671)  can0  067   [8]  12 80 66 01 01 01 00 00
 (008.006672)  can0  068   [8]  05 00 00 01 00 00 01 00
 (008.006926)  can0  068   [8]  12 80 66 01 01 01 00 00
 (008.046665)  can0  067   [8]  0B 00 00 00 00 00 00 00
 (008.046683)  can0  068   [8]  0B 00 00 00 00 00 00 00
 (008.106665)  can0  067   [8]  00 8D C7 C2 BB 00 00 00
 (008.106691)  can0  068   [8]  00 6F 57 5A BB 00 00 00
 (008.126653)  can0  067   [8]  05 00 00 01 00 00 01 00
 (008.126676)  can0  068   [8]  05 00 00 01 00 00 01 00
 (008.166678)  can0  067   [8]  0B 00 00 00 00 00 00 00
 (008.166703)  can0  068   [8]  0B 00 00 00 00 00 00 00
 (008.226636)  can0  067   [8]  00 9D 90 C3 BB 00 00 00
 (008.226660)  can0  068   [8]  00 8F E9 5B BB 00 00 00
 (008.246630)  can0  067   [8]  05 00 00 01 00 00 01 00
 (008.246654)  can0  068   [8]  05 00 00 01 00 00 01 00
 (008.286650)  can0  067   [8]  0B 00 00 00 00 00 00 00
 (008.286675)  can0  068   [8]  0B 00 00 00 00 00 00 00
 (008.346659)  can0  067   [8]  00 8D C7 C2 BB 00 00 00
 (008.346684)  can0  068   [8]  00 6F 57 5A BB 00 00 00
 (008.366640)  can0  067   [8]  05 00 00 01 00 00 01 00
 (008.366665)  can0  068   [8]  05 00 00 01 00 00 01 00
 (008.406661)  can0  067   [8]  0B 00 00 00 00 00 00 00
 (008.406689)  can0  068   [8]  0B 00 00 00 00 00 00 00
 (008.446664)  can0  067   [8]  11 00 00 00 00 00 00 00
 (008.446691)  can0  068   [8]  11 00 00 00 00 00 00 00
 (008.466553)  can0  067   [8]  00 AD 59 C4 BB 00 00 00
 (008.466651)  can0  068   [8]  00 6F 57 5A BB 00 00 00
 (008.486651)  can0  067   [8]  05 00 00 01 00 00 01 00
 (008.486678)  can0  068   [8]  05 00 00 01 00 00 01 00
 (008.526654)  can0  067   [8]  0B 00 00 00 00 00 00 00
 (008.526681)  can0  068   [8]  0B 00 00 00 00 00 00 00
 (008.586670)  can0  067   [8]  00 BD 22 C5 BB 00 00 00
 (008.586696)  can0  068   [8]  00 8F E9 5B BB 00 00 00
 (008.606671)  can0  067   [8]  05 00 00 01 00 00 01 00
 (008.606696)  can0  068   [8]  05 00 00 01 00 00 01 00
 (008.646642)  can0  067   [8]  0B 00 00 00 00 00 00 00
 (008.646667)  can0  068   [8]  0B 00 00 00 00 00 00 00
 (008.706612)  can0  067   [8]  00 9D 90 C3 BB 00 00 00
 (008.706633)  can0  068   [8]  00 6F 57 5A BB 00 00 00
 (008.726671)  can0  067   [8]  05 00 00 01 00 00 01 00
 (008.726695)  can0  068   [8]  05 00 00 01 00 00 01 00
 (008.766556)  can0  067   [8]  0B 00 00 00 00 00 00 00
 (008.766687)  can0  068   [8]  0B 00 00 00 00 00 00 00
 (008.826645)  can0  067   [8]  00 9D 90 C3 BB 00 00 00
 (008.826681)  can0  068   [8]  00 6F 57 5A BB 00 00 00
 (008.846652)  can0  067   [8]  05 00 00 01 00 00 01 00
 (008.846688)  can0  068   [8]  05 00 00 01 00 00 01 00
 (008.886647)  can0  067   [8]  0B 00 00 00 00 00 00 00
 (008.886683)  can0  068   [8]  0B 00 00 00 00 00 00 00
 (008.946660)  can0  067   [8]  00 BD 22 C5 BB 00 00 00
 (008.946697)  can0  068   [8]  00 6F 57 5A BB 00 00 00
 (008.966648)  can0  067   [8]  05 00 00 01 00 00 01 00
 (008.966684)  can0  068   [8]  05 00 00 01 00 00 01 00
 (009.006559)  can0  067   [8]  0B 00 00 00 00 00 00 00
 (009.006605)  can0  067   [8]  12 80 66 01 01 01 00 00
 (009.006765)  can0  068   [8]  0B 00 00 00 00 00 00 00
 (009.006773)  can0  068   [8]  12 80 66 01 01 01 00 00
 (009.066672)  can0  067   [8]  00 8D C7 C2 BB 00 00 00
 (009.066699)  can0  068   [8]  00 6F 57 5A BB 00 00 00
 (009.086624)  can0  067   [8]  05 00 00 01 00 00 01 00
 (009.086653)  can0  068   [8]  05 00 00 01 00 00 01 00
 (009.126647)  can0  067   [8]  0B 00 00 00 00 00 00 00
 (009.126670)  can0  068   [8]  0B 00 00 00 00 00 00 00
 (009.186593)  can0  067   [8]  00 9D 90 C3 BB 00 00 00
 (009.186613)  can0  068   [8]  00 6F 57 5A BB 00 00 00
 (009.206620)  can0  067   [8]  05 00 00 01 00 00 01 00
 (009.206642)  can0  068   [8]  05 00 00 01 00 00 01 00
 (009.246648)  can0  067   [8]  0B 00 00 00 00 00 00 00
 (009.246673)  can0  068   [8]  0B 00 00 00 00 00 00 00
 (009.306646)  can0  067   [8]  00 9D 90 C3 BB 00 00 00
 (009.306670)  can0  068   [8]  00 6F 57 5A BB 00 00 00
 (009.326609)  can0  067   [8]  05 00 00 01 00 00 01 00
 (009.326632)  can0  068   [8]  05 00 00 01 00 00 01 00
 (009.366673)  can0  067   [8]  0B 00 00 00 00 00 00 00
 (009.366696)  can0  068   [8]  0B 00 00 00 00 00 00 00
 (009.426649)  can0  067   [8]  00 9D 90 C3 BB 00 00 00
 (009.426672)  can0  068   [8]  00 6F 57 5A BB 00 00 00
 (009.446494)  can0  067   [8]  05 00 00 01 00 00 01 00
 (009.446512)  can0  067   [8]  11 00 00 00 00 00 00 00
 (009.446662)  can0  068   [8]  05 00 00 01 00 00 01 00
 (009.446799)  can0  068   [8]  11 00 00 00 00 00 00 00
 (009.486536)  can0  067   [8]  0B 00 00 00 00 00 00 00
 (009.486718)  can0  068   [8]  0B 00 00 00 00 00 00 00
 (009.546592)  can0  067   [8]  00 9D 90 C3 BB 00 00 00
 (009.546613)  can0  068   [8]  00 6F 57 5A BB 00 00 00
 (009.566639)  can0  067   [8]  05 00 00 01 00 00 01 00
 (009.566659)  can0  068   [8]  05 00 00 01 00 00 01 00
 (009.606626)  can0  067   [8]  0B 00 00 00 00 00 00 00
 (009.606649)  can0  068   [8]  0B 00 00 00 00 00 00 00
 (009.666597)  can0  067   [8]  00 AD 59 C4 BB 00 00 00
 (009.666618)  can0  068   [8]  00 6F 57 5A BB 00 00 00
 (009.686609)  can0  067   [8]  05 00 00 01 00 00 01 00
 (009.686629)  can0  068   [8]  05 00 00 01 00 00 01 00
 (009.726626)  can0  067   [8]  0B 00 00 00 00 00 00 00
 (009.726647)  can0  068   [8]  0B 00 00 00 00 00 00 00
 (009.786642)  can0  067   [8]  00 CD EB C5 BB 00 00 00
 (009.786664)  can0  068   [8]  00 6F 57 5A BB 00 00 00
 (009.806596)  can0  067   [8]  05 00 00 01 00 00 01 00
 (009.806617)  can0  068   [8]  05 00 00 01 00 00 01 00
 (009.846617)  can0  067   [8]  0B 00 00 00 00 00 00 00
 (009.846636)  can0  068   [8]  0B 00 00 00 00 00 00 00
 (009.906599)  can0  067   [8]  00 AD 59 C4 BB 00 00 00
 (009.906618)  can0  068   [8]  00 4E C5 58 BB 00 00 00
 (009.926624)  can0  067   [8]  05 00 00 01 00 00 01 00
 (009.926645)  can0  068   [8]  05 00 00 01 00 00 01 00
 (009.966605)  can0  067   [8]  0B 00 00 00 00 00 00 00
 (009.966625)  can0  068   [8]  0B 00 00 00 00 00 00 00
 (010.006595)  can0  067   [8]  12 80 66 01 01 01 00 00
 (010.006615)  can0  068   [8]  12 80 66 01 01 01 00 00
 (010.017487)  can0  064   [8]  67 01 92 0A 86 BF 06 00
 (010.019788)  can0  064   [8]  68 01 92 0A 86 3F 06 00
 (010.026517)  can0  067   [8]  00 AD 59 C4 BB 00 00 00
 (010.026535)  can0  067   [8]  11 00 00 00 00 00 11 01
 (010.026686)  can0  068   [8]  00 6F 57 5A BB 00 00 00
 (010.026824)  can0  068   [8]  11 00 00 00 00 00 11 01
 (010.046523)  can0  067   [8]  05 00 00 01 05 00 01 00
 (010.046541)  can0  067   [8]  11 06 00 00 00 00 09 01
 (010.046710)  can0  067   [8]  12 80 67 01 01 01 00 00
 (010.046718)  can0  068   [8]  05 00 00 01 0B 00 00 00
 (010.046911)  can0  068   [8]  11 06 00 00 00 00 09 01
 (010.047056)  can0  068   [8]  12 80 67 01 01 01 00 00
 (010.086621)  can0  067   [8]  0B 9D 90 C3 BB 00 00 00
 (010.086646)  can0  068   [8]  0B 6F 57 5A BB 00 00 00
 (010.146673)  can0  067   [8]  00 C8 BB AF BC 00 00 00
 (010.146698)  can0  068   [8]  00 9C FF 36 3C 00 00 00
 (010.166663)  can0  067   [8]  05 B4 13 00 EB 13 00 00
 (010.166687)  can0  068   [8]  05 A7 14 01 7C 15 01 00
 (010.206674)  can0  067   [8]  0B 1D D9 C9 BB 00 00 00
 (010.206695)  can0  068   [8]  0B 6D C6 4D BB 00 00 00
 (010.266586)  can0  067   [8]  00 F9 A7 BE BC 00 00 00
 (010.266639)  can0  068   [8]  00 8F E9 5B 3C 00 00 00
 (010.286552)  can0  067   [8]  05 E8 14 00 DF 14 00 00
 (010.286706)  can0  068   [8]  05 D2 15 01 3A 1B 01 00
 (010.326622)  can0  067   [8]  0B 60 1F E6 BB 00 00 00
 (010.326641)  can0  068   [8]  0B CA A7 13 BB 00 00 00
 (010.386523)  can0  067   [8]  00 3D DA BE BC 00 00 00
 (010.386666)  can0  068   [8]  00 9E B2 5C 3C 00 00 00
 (010.406617)  can0  067   [8]  05 0F 18 00 F8 17 00 00
 (010.406635)  can0  068   [8]  05 06 19 01 37 18 01 00
 (010.446612)  can0  067   [8]  0B EA 39 15 BC 00 00 00
 (010.446630)  can0  068   [8]  0B 0C EE 2F B9 00 00 00
 (010.506528)  can0  067   [8]  00 D5 07 C0 BC 00 00 00
 (010.506672)  can0  068   [8]  00 36 E0 5D 3C 00 00 00
 (010.526617)  can0  067   [8]  05 7C 1D 00 75 1D 00 00
 (010.526635)  can0  068   [8]  05 91 1E 01 AD 1E 01 00
 (010.566628)  can0  067   [8]  0B 66 AA 53 BC 00 00 00
 (010.566648)  can0  068   [8]  0B 30 55 70 3B 00 00 00
 (010.626604)  can0  067   [8]  00 B0 67 C1 BC 00 00 00
 (010.626621)  can0  068   [8]  00 86 CD 61 3C 00 00 00
 (010.646567)  can0  067   [8]  05 30 26 00 27 26 00 00
 (010.646672)  can0  068   [8]  05 50 27 01 91 25 01 00
 (010.686575)  can0  067   [8]  0B 5B B9 9A BC 00 00 00
 (010.686619)  can0  068   [8]  0B AB A6 1E 3C 00 00 00
 (010.746615)  can0  067   [8]  00 B9 14 C8 BC 00 00 00
 (010.746635)  can0  068   [8]  00 D8 4B 72 3C 00 00 00
 (010.766573)  can0  067   [8]  05 D4 31 00 00 32 00 00
 (010.766664)  can0  068   [8]  05 A5 32 01 84 32 01 00
 (010.806586)  can0  067   [8]  0B 86 CD E1 BC 00 00 00
 (010.806606)  can0  068   [8]  0B 4E FE 96 3C 00 00 00
 (010.866548)  can0  067   [8]  00 63 2D E3 BC 00 00 00
 (010.866649)  can0  068   [8]  00 EC B6 85 3C 00 00 00
 (010.886638)  can0  067   [8]  05 F8 38 00 1F 38 00 00
 (010.886660)  can0  068   [8]  05 F0 40 01 7A 40 01 00
 (010.926652)  can0  067   [8]  0B A9 1F 20 BD 00 00 00
 (010.926675)  can0  068   [8]  0B 29 39 F6 3C 00 00 00
 (010.986621)  can0  067   [8]  00 24 C9 1C BD 00 00 00
 (010.986641)  can0  068   [8]  00 15 F6 8D 3C 00 00 00
 (011.006608)  can0  067   [8]  05 46 3E 00 37 3C 00 00
 (011.006628)  can0  068   [8]  05 9C 49 01 55 44 01 00
 (011.046597)  can0  067   [8]  0B 3B EE 5A BD 00 00 00
 (011.046618)  can0  067   [8]  11 06 00 00 00 00 09 01
 (011.046619)  can0  067   [8]  12 80 67 01 01 01 00 00
 (011.046746)  can0  068   [8]  0B D0 68 36 3D 00 00 00
 (011.046864)  can0  068   [8]  11 06 00 00 00 00 09 01
 (011.046971)  can0  068   [8]  12 80 67 01 01 01 00 00
 (011.066577)  can0  067   [8]  0C 02 A1 92 42 02 F0 7F
 (011.066595)  can0  068   [8]  0C 02 A1 A4 52 00 F0 7E
 (011.106603)  can0  067   [8]  00 0B 5D A3 BD 00 00 00
 (011.106622)  can0  068   [8]  00 99 4C 91 3D 00 00 00
 (011.126636)  can0  067   [8]  05 C5 16 00 F3 16 00 00
 (011.126658)  can0  068   [8]  05 06 15 01 EE 15 01 00
 (011.166629)  can0  067   [8]  0B CD B5 90 BD 00 00 00
 (011.166650)  can0  068   [8]  0B DA 63 7D 3D 00 00 00
 (011.226624)  can0  067   [8]  00 8E BD B4 BD 00 00 00
 (011.226645)  can0  068   [8]  00 F2 EB A2 3D 00 00 00
 (011.246550)  can0  067   [8]  05 CC 24 00 A2 24 00 00
 (011.246647)  can0  068   [8]  05 DA 24 01 AD 24 01 00
 (011.286486)  can0  067   [8]  0B 54 BF B9 BD 00 00 00
 (011.286663)  can0  068   [8]  0B 6B 13 A8 3D 00 00 00
 (011.346584)  can0  067   [8]  00 E6 F7 E0 BD 00 00 00
 (011.346602)  can0  068   [8]  00 3A 5D CE 3D 00 00 00
 (011.366598)  can0  067   [8]  05 A8 25 00 D0 24 00 00
 (011.366616)  can0  068   [8]  05 A3 27 01 DD 27 01 00
 (011.406625)  can0  067   [8]  0B B1 93 E8 BD 00 00 00
 (011.406645)  can0  068   [8]  0B 50 4C D7 3D 00 00 00
 (011.466609)  can0  067   [8]  00 7A BA 0F BE 00 00 00
 (011.466631)  can0  068   [8]  00 A4 B0 05 3E 00 00 00
 (011.486645)  can0  067   [8]  05 B7 1B 00 00 1B 00 00
 (011.486666)  can0  068   [8]  05 31 1D 01 14 1D 01 00
 (011.526533)  can0  067   [8]  0B C0 73 0E BE 00 00 00
 (011.526632)  can0  068   [8]  0B 9C 08 06 3E 00 00 00
 (011.586552)  can0  067   [8]  00 90 AE 1F BE 00 00 00
 (011.586590)  can0  068   [8]  00 35 8D 16 3E 00 00 00
 (011.606625)  can0  067   [8]  05 EB 2B 00 CE 2B 00 00
 (011.606646)  can0  068   [8]  05 BB 2C 01 70 2C 01 00
 (011.646628)  can0  067   [8]  0B 6C D9 2A BE 00 00 00
 (011.646646)  can0  068   [8]  0B D5 A6 22 3E 00 00 00
 (011.706629)  can0  067   [8]  00 07 B0 43 BE 00 00 00
 (011.706648)  can0  068   [8]  00 E0 F7 39 3E 00 00 00
 (011.726552)  can0  067   [8]  05 57 24 00 71 23 00 00
 (011.726587)  can0  068   [8]  05 C2 26 01 C2 25 01 00
 (011.766601)  can0  067   [8]  0B EB F6 48 BE 00 00 00
 (011.766623)  can0  068   [8]  0B 71 09 41 3E 00 00 00
 (011.826584)  can0  067   [8]  00 5A 85 63 BE 00 00 00
 (011.826608)  can0  068   [8]  00 E2 1E 5A 3E 00 00 00
 (011.846618)  can0  067   [8]  05 8D 1E 00 A7 1E 00 00
 (011.846642)  can0  068   [8]  05 F0 20 01 69 20 01 00
 (011.886626)  can0  067   [8]  0B 20 87 68 BE 00 00 00
 (011.886650)  can0  068   [8]  0B C4 DE 60 3E 00 00 00
 (011.946537)  can0  067   [8]  00 38 05 80 BE 00 00 00
 (011.946686)  can0  068   [8]  00 34 2E 77 3E 00 00 00
 (011.966615)  can0  067   [8]  05 55 1C 00 2F 1C 00 00
 (011.966639)  can0  068   [8]  05 F1 1F 01 AE 1F 01 00
 (012.006609)  can0  067   [8]  0B 84 1E 84 BE 00 00 00
 (012.006630)  can0  068   [8]  0B C0 69 80 3E 00 00 00
 (012.046598)  can0  067   [8]  11 06 00 00 00 00 09 01
 (012.046620)  can0  067   [8]  12 80 67 00 01 01 00 00
 (012.046622)  can0  067   [8]  0C 02 A1 89 FF 00 00 7E
 (012.046752)  can0  068   [8]  11 06 00 00 00 00 09 01
 (012.046848)  can0  068   [8]  12 80 67 00 01 01 00 00
 (012.047019)  can0  068   [8]  0C 02 A1 89 FF 00 00 7E
 (012.066553)  can0  067   [8]  00 86 D3 8D BE 00 00 00
 (012.066627)  can0  068   [8]  00 F0 C9 89 3E 00 00 00
 (012.086590)  can0  067   [8]  05 B9 24 00 0E 24 00 00
 (012.086610)  can0  068   [8]  05 90 26 01 7F 26 01 00
 (012.126538)  can0  067   [8]  0B E0 2E 94 BE 00 00 00
 (012.126669)  can0  068   [8]  0B D0 9F 90 3E 00 00 00
 (012.186582)  can0  067   [8]  00 74 53 9F BE 00 00 00
 (012.186604)  can0  068   [8]  00 58 CF 9A 3E 00 00 00
 (012.206579)  can0  067   [8]  05 67 26 00 1B 26 00 00
 (012.206601)  can0  068   [8]  05 5E 28 01 28 27 01 00
 (012.246628)  can0  067   [8]  0B 61 42 A4 BE 00 00 00
 (012.246652)  can0  068   [8]  0B DF D5 A0 3E 00 00 00
 (012.306469)  can0  067   [8]  00 34 28 B1 BE 00 00 00
 (012.306640)  can0  068   [8]  00 CD B3 AC 3E 00 00 00
 (012.326588)  can0  067   [8]  05 C5 20 00 35 20 00 00
 (012.326609)  can0  068   [8]  05 24 25 01 EC 24 01 00
 (012.366583)  can0  067   [8]  0B BD 52 B4 BE 00 00 00
 (012.366604)  can0  068   [8]  0B CA 08 B1 3E 00 00 00
 (012.426598)  can0  067   [8]  00 98 59 C2 BE 00 00 00
 (012.426617)  can0  068   [8]  00 0F CC BD 3E 00 00 00
 (012.446580)  can0  067   [8]  05 96 1A 00 F1 19 00 00
 (012.446600)  can0  068   [8]  05 C4 1E 01 CE 1E 01 00
 (012.486569)  can0  067   [8]  0B 3E 66 C4 BE 00 00 00
 (012.486621)  can0  068   [8]  0B D9 3E C1 3E 00 00 00
 (012.546547)  can0  067   [8]  00 B2 BE D0 BE 00 00 00
 (012.546668)  can0  068   [8]  00 FE 6F CC 3E 00 00 00
 (012.566539)  can0  067   [8]  05 86 19 00 FB 18 00 00
 (012.566670)  can0  068   [8]  05 A7 1E 01 DC 1D 01 00
 (012.606603)  can0  067   [8]  0B 9A 76 D4 BE 00 00 00
 (012.606624)  can0  068   [8]  0B E8 74 D1 3E 00 00 00
 (012.666594)  can0  067   [8]  00 DA 9F DE BE 00 00 00
 (012.666612)  can0  068   [8]  00 85 DE DA 3E 00 00 00
 (012.686630)  can0  067   [8]  05 6F 20 00 B4 1F 00 00
 (012.686650)  can0  068   [8]  05 49 23 01 51 22 01 00
 (012.726587)  can0  067   [8]  0B 1B 8A E4 BE 00 00 00
 (012.726609)  can0  068   [8]  0B D3 A7 E1 3E 00 00 00
 (012.786623)  can0  067   [8]  00 15 FA EF BE 00 00 00
 (012.786647)  can0  068   [8]  00 3C A8 EB 3E 00 00 00
 (012.806591)  can0  067   [8]  05 10 23 00 D8 21 00 00
 (012.806613)  can0  068   [8]  05 F0 26 01 05 27 01 00
 (012.846645)  can0  067   [8]  0B 77 9A F4 BE 00 00 00
 (012.846668)  can0  068   [8]  0B E3 DD F1 3E 00 00 00
 (012.906548)  can0  067   [8]  00 B4 E2 00 BF 00 00 00
 (012.906656)  can0  068   [8]  00 69 86 FD 3E 00 00 00
 (012.926551)  can0  067   [8]  05 87 1D 00 2F 1D 00 00
 (012.926585)  can0  068   [8]  05 08 23 01 D8 22 01 00
 (012.966544)  can0  067   [8]  0B FC 56 02 BF 00 00 00
 (012.966681)  can0  068   [8]  0B F9 09 01 3F 00 00 00
 (013.026602)  can0  067   [8]  00 F8 7C 09 BF 00 00 00
 (013.026625)  can0  068   [8]  00 E5 66 07 3F 00 00 00
 (013.046595)  can0  067   [8]  05 9B 17 00 61 17 00 00
 (013.046622)  can0  067   [8]  11 06 00 00 00 00 09 01
 (013.046623)  can0  067   [8]  12 80 67 00 01 01 00 00
 (013.046649)  can0  068   [8]  05 FF 1C 01 62 1C 01 00
 (013.046906)  can0  068   [8]  11 06 00 00 00 00 09 01
 (013.046915)  can0  068   [8]  12 80 67 00 01 01 00 00
 (013.066588)  can0  067   [8]  0C 02 A1 A4 FF 00 00 7E
 (013.066609)  can0  068   [8]  0C 02 A1 B6 FF 00 00 7E
 (013.086533)  can0  067   [8]  0B 2A 5F 0A BF 00 00 00
 (013.086654)  can0  068   [8]  0B 01 25 09 3F 00 00 00
 (013.146513)  can0  067   [8]  00 38 D5 10 BF 00 00 00
 (013.146635)  can0  068   [8]  00 26 BF 0E 3F 00 00 00
 (013.166594)  can0  067   [8]  05 01 15 00 F9 14 00 00
 (013.166613)  can0  068   [8]  05 BD 1B 01 DE 1B 01 00
 (013.206601)  can0  067   [8]  0B 32 7A 12 BF 00 00 00
 (013.206619)  can0  068   [8]  0B BE 4F 11 3F 00 00 00
 (013.266526)  can0  067   [8]  00 3C AE 17 BF 00 00 00
 (013.266675)  can0  068   [8]  00 22 DA 15 3F 00 00 00
 (013.286563)  can0  067   [8]  05 6B 1C 00 F0 1B 00 00
 (013.286580)  can0  068   [8]  05 19 21 01 CD 20 01 00
 (013.326545)  can0  067   [8]  0B 19 71 1A BF 00 00 00
 (013.326562)  can0  068   [8]  0B 7E 59 19 3F 00 00 00
 (013.386546)  can0  067   [8]  00 5D 3A 20 BF 00 00 00
 (013.386590)  can0  068   [8]  00 D9 46 1E 3F 00 00 00
 (013.406538)  can0  067   [8]  05 89 1F 00 E0 1E 00 00
 (013.406641)  can0  068   [8]  05 BB 24 01 28 24 01 00
 (013.446539)  can0  067   [8]  0B D9 7A 22 BF 00 00 00
 (013.446642)  can0  068   [8]  0B 85 74 21 3F 00 00 00
 (013.506525)  can0  067   [8]  00 98 21 29 BF 00 00 00
 (013.506654)  can0  068   [8]  00 CE 1C 27 3F 00 00 00
 (013.526548)  can0  067   [8]  05 5C 1A 00 CE 19 00 00
 (013.526651)  can0  068   [8]  05 FB 20 01 B2 20 01 00
 (013.566574)  can0  067   [8]  0B 07 83 2A BF 00 00 00
 (013.566592)  can0  068   [8]  0B 8D 8F 29 3F 00 00 00
 (013.626607)  can0  067   [8]  00 6E BD 31 BF 00 00 00
 (013.626629)  can0  068   [8]  00 34 C5 2F 3F 00 00 00
 (013.646596)  can0  067   [8]  05 3C 14 00 44 12 00 00
 (013.646617)  can0  068   [8]  05 D2 1A 01 84 19 01 00
 (013.686598)  can0  067   [8]  0B C8 8C 32 BF 00 00 00
 (013.686618)  can0  068   [8]  0B 03 A9 31 3F 00 00 00
 (013.746600)  can0  067   [8]  00 86 3E 39 BF 00 00 00
 (013.746622)  can0  068   [8]  00 97 36 37 3F 00 00 00
 (013.766600)  can0  067   [8]  05 C7 10 00 04 11 00 00
 (013.766620)  can0  068   [8]  05 C0 18 01 B1 18 01 00
 (013.806612)  can0  067   [8]  0B F6 94 3A BF 00 00 00
 (013.806635)  can0  068   [8]  0B 0A C4 39 3F 00 00 00
 (013.866541)  can0  067   [8]  00 B4 E3 3F BF 00 00 00
 (013.866652)  can0  068   [8]  00 99 25 3E 3F 00 00 00
 (013.886553)  can0  067   [8]  05 F0 18 00 FC 17 00 00
 (013.886662)  can0  068   [8]  05 A4 1F 01 DC 21 01 00
 (013.926558)  can0  067   [8]  0B FD AF 42 BF 00 00 00
 (013.926596)  can0  068   [8]  0B 59 F0 41 3F 00 00 00
 (013.986593)  can0  067   [8]  00 41 79 48 BF 00 00 00
 (013.986616)  can0  068   [8]  00 95 AE 46 3F 00 00 00
 (014.006592)  can0  067   [8]  05 AA 1B 00 05 1B 00 00
 (014.006612)  can0  068   [8]  05 2B 22 01 F9 21 01 00
 (014.046595)  can0  067   [8]  0B E4 A6 4A BF 00 00 00
 (014.046617)  can0  067   [8]  11 06 00 00 00 00 09 01
 (014.046619)  can0  067   [8]  12 80 67 00 01 01 00 00
 (014.046741)  can0  068   [8]  0B 87 F8 49 3F 00 00 00
 (014.046788)  can0  068   [8]  11 06 00 00 00 00 09 01
 (014.046953)  can0  068   [8]  12 80 67 00 01 01 00 00
 (014.066556)  can0  067   [8]  0C 02 A1 92 FF 00 00 7E
 (014.066574)  can0  068   [8]  0C 02 A1 AD FF 00 00 7E
 (014.106524)  can0  067   [8]  00 EE 3D 51 BF 00 00 00
 (014.106627)  can0  068   [8]  00 D4 74 4F 3F 00 00 00
 (014.126430)  can0  067   [8]  05 E9 15 00 EF 14 00 00
 (014.126671)  can0  068   [8]  05 02 1E 01 87 1D 01 00
 (014.166566)  can0  067   [8]  0B 38 A7 52 BF 00 00 00
 (014.166585)  can0  068   [8]  0B B5 0B 52 3F 00 00 00
 (014.226543)  can0  067   [8]  00 EC BB 59 BF 00 00 00
 (014.226588)  can0  068   [8]  00 3D 07 58 3F 00 00 00
 (014.246531)  can0  067   [8]  05 CD 0F 00 D9 0C 00 00
 (014.246634)  can0  068   [8]  05 8B 16 01 DF 16 01 00
 (014.286522)  can0  067   [8]  0B D8 81 5A BF 00 00 00
 (014.286628)  can0  068   [8]  0B 9C F7 59 3F 00 00 00
 (014.346538)  can0  067   [8]  00 1B 56 60 BF 00 00 00
 (014.346653)  can0  068   [8]  00 FC B8 5E 3F 00 00 00
 (014.366491)  can0  067   [8]  05 89 0D 00 75 0E 00 00
 (014.366626)  can0  068   [8]  05 80 15 01 5E 15 01 00
 (014.406513)  can0  067   [8]  0B A5 12 62 BF 00 00 00
 (014.406654)  can0  068   [8]  0B B0 99 61 3F 00 00 00
 (014.466531)  can0  067   [8]  00 24 03 67 BF 00 00 00
 (014.466565)  can0  068   [8]  00 E0 62 65 3F 00 00 00
 (014.486539)  can0  067   [8]  05 2B 18 00 83 17 00 00
 (014.486573)  can0  068   [8]  05 73 1F 01 C4 1C 01 00
 (014.526534)  can0  067   [8]  0B 32 3A 69 BF 00 00 00
 (014.526661)  can0  068   [8]  0B 86 D2 68 3F 00 00 00
 (014.586591)  can0  067   [8]  00 0A FA 6E BF 00 00 00
 (014.586610)  can0  068   [8]  00 E4 9E 6D 3F 00 00 00
 (014.606521)  can0  067   [8]  05 4F 12 00 5D 11 00 00
 (014.606646)  can0  068   [8]  05 B6 18 01 5E 18 01 00
 (014.646544)  can0  067   [8]  0B F4 D5 6F BF 00 00 00
 (014.646664)  can0  068   [8]  0B 8F 7F 6F 3F 00 00 00
 (014.706539)  can0  067   [8]  00 A3 B3 75 BF 00 00 00
 (014.706659)  can0  068   [8]  00 EF 35 74 3F 00 00 00
 (014.726563)  can0  067   [8]  05 A0 07 00 5B 07 00 00
 (014.726581)  can0  068   [8]  05 49 0F 01 96 0E 01 00
 (014.766520)  can0  067   [8]  0B EB C4 75 BF 00 00 00
 (014.766581)  can0  068   [8]  0B 3B 7E 75 3F 00 00 00
 (014.826550)  can0  067   [8]  00 11 E6 79 BF 00 00 00
 (014.826589)  can0  068   [8]  00 7D 97 78 3F 00 00 00
 (014.846537)  can0  067   [8]  05 88 13 00 F1 12 00 00
 (014.846638)  can0  068   [8]  05 A0 1A 01 3E 19 01 00
 (014.886591)  can0  067   [8]  0B 1A FC 7A BF 00 00 00
 (014.886613)  can0  068   [8]  0B FB C1 7A 3F 00 00 00
 (014.946589)  can0  067   [8]  00 8B 5F 80 BF 00 00 00
 (014.946610)  can0  068   [8]  00 7E 86 7F 3F 00 00 00
 (014.966575)  can0  067   [8]  05 C5 07 00 92 07 00 00
 (014.966594)  can0  068   [8]  05 8E 0C 01 C2 0C 01 00
 (015.006577)  can0  067   [8]  0B C9 76 7F BF 00 00 00
 (015.006596)  can0  068   [8]  0B CE 4A 7F 3F 00 00 00
 (015.046560)  can0  067   [8]  11 06 00 00 00 00 09 01
 (015.046578)  can0  067   [8]  12 80 67 00 01 01 00 00
 (015.046579)  can0  067   [8]  0C 02 A1 9B FF 00 00 7E
 (015.046701)  can0  068   [8]  11 06 00 00 00 00 09 01
 (015.046851)  can0  068   [8]  12 80 67 00 01 01 00 00
 (015.046965)  can0  068   [8]  0C 02 A1 AD FF 00 00 7E
 (015.066567)  can0  067   [8]  00 8F 96 81 BF 00 00 00
 (015.066586)  can0  068   [8]  00 B1 03 81 3F 00 00 00
 (015.086555)  can0  067   [8]  05 8A 0F 00 EA 0E 00 00
 (015.086573)  can0  068   [8]  05 64 16 01 CC 16 01 00
 (015.126562)  can0  067   [8]  0B D8 9C 81 BF 00 00 00
 (015.126579)  can0  068   [8]  0B 90 8B 81 3F 00 00 00
 (015.186433)  can0  067   [8]  00 66 E4 83 BF 00 00 00
 (015.186670)  can0  068   [8]  00 03 78 83 3F 00 00 00
 (015.206543)  can0  067   [8]  05 D7 05 00 BC 05 00 00
 (015.206669)  can0  068   [8]  05 58 0A 01 11 09 01 00
 (015.246550)  can0  067   [8]  0B 30 23 83 BF 00 00 00
 (015.246678)  can0  068   [8]  0B 68 17 83 3F 00 00 00
 (015.306507)  can0  067   [8]  00 49 F7 84 BF 00 00 00
 (015.306548)  can0  068   [8]  00 1D 95 84 3F 00 00 00
 (015.326472)  can0  067   [8]  05 AE 09 00 2A 09 00 00
 (015.326657)  can0  068   [8]  05 87 0F 01 6A 0F 01 00
 (015.366504)  can0  067   [8]  0B 5B 47 84 BF 00 00 00
 (015.366616)  can0  068   [8]  0B 81 3F 84 3F 00 00 00
 (015.426507)  can0  067   [8]  00 D1 1D 86 BF 00 00 00
 (015.426612)  can0  068   [8]  00 FF B2 85 3F 00 00 00
 (015.446559)  can0  067   [8]  05 C9 08 00 AD 08 00 00
 (015.446578)  can0  068   [8]  05 F4 0D 01 CE 0D 01 00
 (015.486563)  can0  067   [8]  0B 22 15 85 BF 00 00 00
 (015.486582)  can0  068   [8]  0B 6B 10 85 3F 00 00 00
 (015.546516)  can0  067   [8]  00 87 CE 86 BF 00 00 00
 (015.546576)  can0  068   [8]  00 A3 72 86 3F 00 00 00
 (015.566526)  can0  067   [8]  05 39 08 00 3E 08 00 00
 (015.566568)  can0  068   [8]  05 48 0C 01 58 0C 01 00
 (015.606498)  can0  067   [8]  0B 4B 98 85 BF 00 00 00
 (015.606617)  can0  068   [8]  0B 27 95 85 3F 00 00 00
 (015.666363)  can0  067   [8]  00 C5 42 87 BF 00 00 00
 (015.666626)  can0  068   [8]  00 24 19 87 3F 00 00 00
 (015.686509)  can0  067   [8]  05 20 08 00 F0 07 00 00
 (015.686614)  can0  068   [8]  05 13 0A 01 00 0A 01 00
 (015.726371)  can0  067   [8]  0B 56 E1 85 BF 00 00 00
 (015.726635)  can0  068   [8]  0B C4 DF 85 3F 00 00 00
 (015.786569)  can0  067   [8]  00 73 94 87 BF 00 00 00
 (015.786590)  can0  068   [8]  00 8D 4E 87 3F 00 00 00
 (015.806558)  can0  067   [8]  05 62 07 00 AE 07 00 00
 (015.806579)  can0  068   [8]  05 F9 0A 01 C7 0A 01 00
 (015.846576)  can0  067   [8]  0B 8A 01 86 BF 00 00 00
 (015.846597)  can0  068   [8]  0B C1 00 86 3F 00 00 00
 (015.906588)  can0  067   [8]  00 71 AA 87 BF 00 00 00
 (015.906610)  can0  068   [8]  00 C3 4D 87 3F 00 00 00
 (015.926557)  can0  067   [8]  05 0A 07 00 51 05 00 00
 (015.926581)  can0  068   [8]  05 2F 0C 01 D7 0B 01 00
 (015.966562)  can0  067   [8]  0B 65 09 86 BF 00 00 00
 (015.966583)  can0  068   [8]  0B 65 09 86 3F 00 00 00
 (016.026410)  can0  067   [8]  00 DC BE 87 BF 00 00 00
 (016.026429)  can0  067   [8]  11 06 00 00 00 00 29 01
 (016.026661)  can0  068   [8]  00 B0 5C 87 3F 00 00 00
 (016.026705)  can0  068   [8]  11 06 00 00 00 00 29 01
 (016.046519)  can0  067   [8]  05 84 00 00 06 01 00 00
 (016.046540)  can0  067   [8]  12 80 67 00 01 01 00 00
 (016.046541)  can0  067   [8]  0C 02 A1 9B 54 00 00 7E
 (016.046674)  can0  068   [8]  05 F2 05 01 23 06 01 00
 (016.046790)  can0  068   [8]  12 80 67 00 01 01 00 00
 (016.046937)  can0  068   [8]  0C 02 A1 89 55 00 10 7E
 (016.086488)  can0  067   [8]  0B 2E 0A 86 BF 00 00 00
 (016.086625)  can0  068   [8]  0B 2E 0A 86 3F 00 00 00
 (016.146572)  can0  067   [8]  00 DC BE 87 BF 00 00 00
 (016.146593)  can0  068   [8]  00 79 5D 87 3F 00 00 00
 (016.166568)  can0  067   [8]  05 A5 04 01 4B 06 01 00
 (016.166593)  can0  068   [8]  05 5C 00 01 54 00 01 00
 (016.206608)  can0  067   [8]  0B 2E 0A 86 BF 00 00 00
 (016.206628)  can0  068   [8]  0B 2E 0A 86 3F 00 00 00
 (016.266435)  can0  067   [8]  00 A5 BF 87 BF 00 00 00
 (016.266595)  can0  068   [8]  00 B0 5C 87 3F 00 00 00
 (016.286541)  can0  067   [8]  05 AF 04 01 1D 06 01 00
 (016.286559)  can0  068   [8]  05 5B 00 01 5D 00 01 00
 (016.326585)  can0  067   [8]  0B 2E 0A 86 BF 00 00 00
 (016.326609)  can0  068   [8]  0B 2E 0A 86 3F 00 00 00
 (016.386548)  can0  067   [8]  00 13 BE 87 BF 00 00 00
 (016.386570)  can0  068   [8]  00 E7 5B 87 3F 00 00 00
 (016.406507)  can0  067   [8]  05 A6 04 01 86 04 01 00
 (016.406561)  can0  068   [8]  05 65 00 01 82 00 01 00
 (016.446561)  can0  067   [8]  0B 2E 0A 86 BF 00 00 00
 (016.446581)  can0  068   [8]  0B 2E 0A 86 3F 00 00 00
 (016.506515)  can0  067   [8]  00 6F C0 87 BF 00 00 00
 (016.506635)  can0  068   [8]  00 79 5D 87 3F 00 00 00
 (016.526577)  can0  067   [8]  05 B1 04 01 D9 04 01 00
 (016.526595)  can0  068   [8]  05 50 00 01 38 00 01 00
 (016.566523)  can0  067   [8]  0B 2E 0A 86 BF 00 00 00
 (016.566641)  can0  068   [8]  0B 2E 0A 86 3F 00 00 00
 (016.626448)  can0  067   [8]  00 A5 BF 87 BF 00 00 00
 (016.626649)  can0  068   [8]  00 B0 5C 87 3F 00 00 00
 (016.646414)  can0  067   [8]  05 B1 04 01 D0 04 01 00
 (016.646711)  can0  068   [8]  05 5A 00 01 41 00 01 00
 (016.686480)  can0  067   [8]  0B 2E 0A 86 BF 00 00 00
 (016.686522)  can0  068   [8]  0B 2E 0A 86 3F 00 00 00
 (016.746562)  can0  067   [8]  00 A5 BF 87 BF 00 00 00
 (016.746581)  can0  068   [8]  00 B0 5C 87 3F 00 00 00
 (016.766526)  can0  067   [8]  05 BC 04 01 FE 04 01 00
 (016.766546)  can0  068   [8]  05 63 00 01 4A 00 01 00
 (016.806551)  can0  067   [8]  0B 2E 0A 86 BF 00 00 00
 (016.806574)  can0  068   [8]  0B 2E 0A 86 3F 00 00 00
 (016.866563)  can0  067   [8]  00 DC BE 87 BF 00 00 00
 (016.866586)  can0  068   [8]  00 B0 5C 87 3F 00 00 00
 (016.886529)  can0  067   [8]  05 B3 04 01 BD 04 01 00
 (016.886552)  can0  068   [8]  05 59 00 01 54 00 01 00
 (016.926540)  can0  067   [8]  0B 2E 0A 86 BF 00 00 00
 (016.926563)  can0  068   [8]  0B 2E 0A 86 3F 00 00 00
 (016.986551)  can0  067   [8]  00 DC BE 87 BF 00 00 00
 (016.986570)  can0  068   [8]  00 B0 5C 87 3F 00 00 00
 (017.006481)  can0  067   [8]  05 B3 04 01 A1 04 01 00
 (017.006578)  can0  068   [8]  05 58 00 01 53 00 01 00
 (017.026540)  can0  067   [8]  11 06 00 00 00 00 29 01
 (017.026558)  can0  068   [8]  11 06 00 00 00 00 29 01
 (017.046596)  can0  067   [8]  0B 2E 0A 86 BF 00 00 00
 (017.046615)  can0  067   [8]  12 80 67 00 01 01 00 00
 (017.046616)  can0  067   [8]  0C 02 A1 9B 00 00 70 08
 (017.046618)  can0  068   [8]  0B 2E 0A 86 3F 00 00 00
 (017.046789)  can0  068   [8]  12 80 67 00 01 01 00 00
 (017.046923)  can0  068   [8]  0C 02 A1 89 00 00 70 02
 (017.106569)  can0  067   [8]  00 38 C1 87 BF 00 00 00
 (017.106586)  can0  068   [8]  00 E7 5B 87 3F 00 00 00
 (017.126515)  can0  067   [8]  05 AA 04 01 58 04 01 00
 (017.126548)  can0  068   [8]  05 58 00 01 66 00 01 00
 (017.166545)  can0  067   [8]  0B 2E 0A 86 BF 00 00 00
 (017.166564)  can0  068   [8]  0B 2E 0A 86 3F 00 00 00
 (017.226563)  can0  067   [8]  00 6F C0 87 BF 00 00 00
 (017.226701)  can0  068   [8]  00 B0 5C 87 3F 00 00 00
 (017.246514)  can0  067   [8]  05 B5 04 01 8F 04 01 00
 (017.246592)  can0  068   [8]  05 57 00 01 5D 00 01 00
 (017.286499)  can0  067   [8]  0B 2E 0A 86 BF 00 00 00
 (017.286619)  can0  068   [8]  0B 2E 0A 86 3F 00 00 00
 (017.346492)  can0  067   [8]  00 A5 BF 87 BF 00 00 00
 (017.346622)  can0  068   [8]  00 E7 5B 87 3F 00 00 00
 (017.366496)  can0  067   [8]  05 B5 04 01 73 04 01 00
 (017.366530)  can0  068   [8]  05 57 00 01 5D 00 01 00
 (017.406545)  can0  067   [8]  0B 2E 0A 86 BF 00 00 00
 (017.406566)  can0  068   [8]  0B 2E 0A 86 3F 00 00 00
 (017.466534)  can0  067   [8]  00 A5 BF 87 BF 00 00 00
 (017.466553)  can0  068   [8]  00 B0 5C 87 3F 00 00 00
 (017.486527)  can0  067   [8]  05 B6 04 01 C7 04 01 00
 (017.486558)  can0  068   [8]  05 60 00 01 4A 00 01 00
 (017.526542)  can0  067   [8]  0B 2E 0A 86 BF 00 00 00
 (017.526560)  can0  068   [8]  0B 2E 0A 86 3F 00 00 00
 (017.586575)  can0  067   [8]  00 6F C0 87 BF 00 00 00
 (017.586595)  can0  068   [8]  00 B0 5C 87 3F 00 00 00
 (017.606492)  can0  067   [8]  05 B7 04 01 8F 04 01 00
 (017.606600)  can0  068   [8]  05 60 00 01 5D 00 01 00
 (017.646558)  can0  067   [8]  0B 2E 0A 86 BF 00 00 00
 (017.646579)  can0  068   [8]  0B 2E 0A 86 3F 00 00 00
 (017.706549)  can0  067   [8]  00 6F C0 87 BF 00 00 00
 (017.706570)  can0  068   [8]  00 B0 5C 87 3F 00 00 00
 (017.726541)  can0  067   [8]  05 AD 04 01 8F 04 01 00
 (017.726561)  can0  068   [8]  05 5F 00 01 66 00 01 00
 (017.766558)  can0  067   [8]  0B 2E 0A 86 BF 00 00 00
 (017.766580)  can0  068   [8]  0B 2E 0A 86 3F 00 00 00
 (017.826555)  can0  067   [8]  00 6F C0 87 BF 00 00 00
 (017.826577)  can0  068   [8]  00 E7 5B 87 3F 00 00 00
 (017.846555)  can0  067   [8]  05 C2 04 01 A1 04 01 00
 (017.846575)  can0  068   [8]  05 54 00 01 5D 00 01 00
 (017.886466)  can0  067   [8]  0B 2E 0A 86 BF 00 00 00
 (017.886643)  can0  068   [8]  0B 2E 0A 86 3F 00 00 00
 (017.946559)  can0  067   [8]  00 6F C0 87 BF 00 00 00
 (017.946581)  can0  068   [8]  00 B0 5C 87 3F 00 00 00
 (017.966516)  can0  067   [8]  05 B9 04 01 73 04 01 00
 (017.966554)  can0  068   [8]  05 54 00 01 66 00 01 00
 (018.006527)  can0  067   [8]  0B 2E 0A 86 BF 00 00 00
 (018.006550)  can0  068   [8]  0B 2E 0A 86 3F 00 00 00
 (018.026394)  can0  067   [8]  11 06 00 00 00 00 29 01
 (018.026612)  can0  068   [8]  11 06 00 00 00 00 29 01
 (018.046574)  can0  067   [8]  12 80 67 00 01 01 00 00
 (018.046597)  can0  067   [8]  0C 02 A1 9B 00 00 80 08
 (018.046599)  can0  068   [8]  12 80 67 00 01 01 00 00
 (018.046737)  can0  068   [8]  0C 02 A1 89 00 00 70 02
 (018.066526)  can0  067   [8]  00 A5 BF 87 BF 00 00 00
 (018.066547)  can0  068   [8]  00 1E 5B 87 3F 00 00 00
 (018.086485)  can0  067   [8]  05 C3 04 01 A1 04 01 00
 (018.086603)  can0  068   [8]  05 5D 00 01 53 00 01 00
 (018.126500)  can0  067   [8]  0B 2E 0A 86 BF 00 00 00
 (018.126584)  can0  068   [8]  0B 2E 0A 86 3F 00 00 00
 (018.186487)  can0  067   [8]  00 6F C0 87 BF 00 00 00
 (018.186598)  can0  068   [8]  00 E7 5B 87 3F 00 00 00
 (018.206479)  can0  067   [8]  05 C4 04 01 A1 04 01 00
 (018.206583)  can0  068   [8]  05 5D 00 01 66 00 01 00
 (018.246485)  can0  067   [8]  0B 2E 0A 86 BF 00 00 00
 (018.246614)  can0  068   [8]  0B 2E 0A 86 3F 00 00 00
 (018.306517)  can0  067   [8]  00 6F C0 87 BF 00 00 00
 (018.306624)  can0  068   [8]  00 1E 5B 87 3F 00 00 00
 (018.326471)  can0  067   [8]  05 BB 04 01 D0 04 01 00
 (018.326621)  can0  068   [8]  05 52 00 01 4A 00 01 00
 (018.366485)  can0  067   [8]  0B 2E 0A 86 BF 00 00 00
 (018.366520)  can0  068   [8]  0B 2E 0A 86 3F 00 00 00
 (018.426473)  can0  067   [8]  00 A5 BF 87 BF 00 00 00
 (018.426602)  can0  068   [8]  00 E7 5B 87 3F 00 00 00
 (018.446491)  can0  067   [8]  05 C5 04 01 D0 04 01 00
 (018.446529)  can0  068   [8]  05 5C 00 01 66 00 01 00
 (018.486388)  can0  067   [8]  0B 2E 0A 86 BF 00 00 00
 (018.486613)  can0  068   [8]  0B 2E 0A 86 3F 00 00 00
 (018.546486)  can0  067   [8]  00 A5 BF 87 BF 00 00 00
 (018.546621)  can0  068   [8]  00 E7 5B 87 3F 00 00 00
 (018.566547)  can0  067   [8]  05 BC 04 01 B4 04 01 00
 (018.566570)  can0  068   [8]  05 5B 00 01 4A 00 01 00
 (018.606469)  can0  067   [8]  0B 2E 0A 86 BF 00 00 00
 (018.606559)  can0  068   [8]  0B 2E 0A 86 3F 00 00 00
 (018.666542)  can0  067   [8]  00 DC BE 87 BF 00 00 00
 (018.666563)  can0  068   [8]  00 E7 5B 87 3F 00 00 00
 (018.686541)  can0  067   [8]  05 BD 04 01 BD 04 01 00
 (018.686565)  can0  068   [8]  05 65 00 01 66 00 01 00
 (018.726403)  can0  067   [8]  0B 2E 0A 86 BF 00 00 00
 (018.726672)  can0  068   [8]  0B 2E 0A 86 3F 00 00 00
 (018.786537)  can0  067   [8]  00 DC BE 87 BF 00 00 00
 (018.786558)  can0  068   [8]  00 1E 5B 87 3F 00 00 00
 (018.806535)  can0  067   [8]  05 D1 04 01 EB 04 01 00
 (018.806556)  can0  068   [8]  05 50 00 01 5D 00 01 00
 (018.846506)  can0  067   [8]  0B 2E 0A 86 BF 00 00 00
 (018.846544)  can0  068   [8]  0B 2E 0A 86 3F 00 00 00
 (018.906505)  can0  067   [8]  00 6F C0 87 BF 00 00 00
 (018.906543)  can0  068   [8]  00 1E 5B 87 3F 00 00 00
 (018.926482)  can0  067   [8]  05 C8 04 01 D0 04 01 00
 (018.926601)  can0  068   [8]  05 50 00 01 4A 00 01 00
 (018.966538)  can0  067   [8]  0B 2E 0A 86 BF 00 00 00
 (018.966559)  can0  068   [8]  0B 2E 0A 86 3F 00 00 00
 (019.026559)  can0  067   [8]  00 A5 BF 87 BF 00 00 00
 (019.026580)  can0  067   [8]  11 06 00 00 00 00 29 01
 (019.026582)  can0  068   [8]  00 1E 5B 87 3F 00 00 00
 (019.026754)  can0  068   [8]  11 06 00 00 00 00 29 01
 (019.046507)  can0  067   [8]  05 C9 04 01 BD 04 01 00
 (019.046528)  can0  067   [8]  12 80 67 00 01 01 00 00
 (019.046530)  can0  067   [8]  0C 02 A1 9B 00 00 70 08
 (019.046665)  can0  068   [8]  05 59 00 01 54 00 01 00
 (019.046708)  can0  068   [8]  12 80 67 00 01 01 00 00
 (019.047016)  can0  068   [8]  0C 02 A1 89 00 00 60 02
 (019.086466)  can0  067   [8]  0B 2E 0A 86 BF 00 00 00
 (019.086504)  can0  068   [8]  0B 2E 0A 86 3F 00 00 00
 (019.146503)  can0  067   [8]  00 A5 BF 87 BF 00 00 00
 (019.146607)  can0  068   [8]  00 E7 5B 87 3F 00 00 00
 (019.166533)  can0  067   [8]  05 BF 04 01 AB 04 01 00
 (019.166551)  can0  068   [8]  05 63 00 01 54 00 01 00
 (019.206559)  can0  067   [8]  0B 2E 0A 86 BF 00 00 00
 (019.206583)  can0  068   [8]  0B 2E 0A 86 3F 00 00 00
 (019.266463)  can0  067   [8]  00 A5 BF 87 BF 00 00 00
 (019.266596)  can0  068   [8]  00 E7 5B 87 3F 00 00 00
 (019.286543)  can0  067   [8]  05 C0 04 01 D0 04 01 00
 (019.286567)  can0  068   [8]  05 58 00 01 54 00 01 00
 (019.326316)  can0  067   [8]  0B 2E 0A 86 BF 00 00 00
 (019.326643)  can0  068   [8]  0B 2E 0A 86 3F 00 00 00
 (019.386489)  can0  067   [8]  00 6F C0 87 BF 00 00 00
 (019.386609)  can0  068   [8]  00 E7 5B 87 3F 00 00 00
 (019.406476)  can0  067   [8]  05 CB 04 01 C7 04 01 00
 (019.406624)  can0  068   [8]  05 62 00 01 66 00 01 00
 (019.446518)  can0  067   [8]  0B 2E 0A 86 BF 00 00 00
 (019.446588)  can0  068   [8]  0B 2E 0A 86 3F 00 00 00
 (019.506519)  can0  067   [8]  00 6F C0 87 BF 00 00 00
 (019.506543)  can0  068   [8]  00 1E 5B 87 3F 00 00 00
 (019.526474)  can0  067   [8]  05 C1 04 01 EC 04 01 00
 (019.526643)  can0  068   [8]  05 61 00 01 1C 00 01 00
 (019.566457)  can0  067   [8]  0B 2E 0A 86 BF 00 00 00
 (019.566568)  can0  068   [8]  0B 2E 0A 86 3F 00 00 00
 (019.626515)  can0  067   [8]  00 A5 BF 87 BF 00 00 00
 (019.626535)  can0  068   [8]  00 1E 5B 87 3F 00 00 00
 (019.646458)  can0  067   [8]  05 CC 04 01 7D 04 01 00
 (019.646585)  can0  068   [8]  05 61 00 01 53 00 01 00
 (019.686501)  can0  067   [8]  0B 2E 0A 86 BF 00 00 00
 (019.686523)  can0  068   [8]  0B 2E 0A 86 3F 00 00 00
 (019.746481)  can0  067   [8]  00 A5 BF 87 BF 00 00 00
 (019.746535)  can0  068   [8]  00 E7 5B 87 3F 00 00 00
 (019.766516)  can0  067   [8]  05 CD 04 01 98 04 01 00
 (019.766538)  can0  068   [8]  05 60 00 01 54 00 01 00
 (019.806329)  can0  067   [8]  0B 2E 0A 86 BF 00 00 00
 (019.806616)  can0  068   [8]  0B 2E 0A 86 3F 00 00 00
 (019.866558)  can0  067   [8]  00 6F C0 87 BF 00 00 00
 (019.866582)  can0  068   [8]  00 E7 5B 87 3F 00 00 00
 (019.886600)  can0  067   [8]  05 B9 04 01 D0 04 01 00
 (019.886624)  can0  068   [8]  05 56 00 01 53 00 01 00
 (019.926506)  can0  067   [8]  0B 2E 0A 86 BF 00 00 00
 (019.926528)  can0  068   [8]  0B 2E 0A 86 3F 00 00 00
 (019.986558)  can0  067   [8]  00 6F C0 87 BF 00 00 00
 (019.986582)  can0  068   [8]  00 1E 5B 87 3F 00 00 00
 (020.006484)  can0  067   [8]  05 D8 04 01 F5 04 01 00
 (020.006524)  can0  068   [8]  05 5F 00 01 54 00 01 00
 (020.026509)  can0  067   [8]  11 06 00 00 00 00 29 01
 (020.026532)  can0  068   [8]  11 06 00 00 00 00 29 01
 (020.031037)  can0  064   [8]  67 01 35 FA 8E BC 07 00
 (020.033824)  can0  064   [8]  68 01 35 FA 8E 3C 07 00
 (020.046398)  can0  067   [8]  0B A5 BF 87 BF 00 00 00
 (020.046416)  can0  067   [8]  11 06 00 00 00 00 09 01
 (020.046481)  can0  067   [8]  12 80 67 00 01 01 00 00
 (020.046654)  can0  068   [8]  0B 1E 5B 87 3F 00 00 00
 (020.046725)  can0  068   [8]  11 06 00 00 00 00 09 01
 (020.046920)  can0  068   [8]  12 80 67 00 01 01 00 00
 (020.066326)  can0  067   [8]  0C 02 A1 9B 00 00 80 08
 (020.066655)  can0  068   [8]  0C 02 A1 89 00 00 70 02
 (020.106530)  can0  067   [8]  00 FE D7 87 BF 00 00 00
 (020.106554)  can0  068   [8]  00 8A 64 87 3F 00 00 00
 (020.126405)  can0  067   [8]  05 E5 03 00 EC 03 00 00
 (020.126608)  can0  068   [8]  05 D5 04 01 D6 04 01 00
 (020.166527)  can0  067   [8]  0B 4A BD 87 BF 00 00 00
 (020.166548)  can0  068   [8]  0B 8B 59 87 3F 00 00 00
 (020.226453)  can0  067   [8]  00 C7 D8 87 BF 00 00 00
 (020.226579)  can0  068   [8]  00 C1 63 87 3F 00 00 00
 (020.246547)  can0  067   [8]  05 FD 02 00 02 03 00 00
 (020.246570)  can0  068   [8]  05 16 04 01 1E 04 01 00
 (020.286489)  can0  067   [8]  0B 27 AF 87 BF 00 00 00
 (020.286569)  can0  068   [8]  0B 68 4B 87 3F 00 00 00
 (020.346472)  can0  067   [8]  00 C7 D8 87 BF 00 00 00
 (020.346584)  can0  068   [8]  00 F8 62 87 3F 00 00 00
 (020.366465)  can0  067   [8]  05 4C 01 00 47 01 00 00
 (020.366599)  can0  068   [8]  05 5B 02 01 50 02 01 00
 (020.406449)  can0  067   [8]  0B 06 8B 87 BF 00 00 00
 (020.406590)  can0  068   [8]  0B 11 28 87 3F 00 00 00
 (020.466537)  can0  067   [8]  00 91 D9 87 BF 00 00 00
 (020.466559)  can0  068   [8]  00 F8 62 87 3F 00 00 00
 (020.486537)  can0  067   [8]  05 EA 01 01 CB 01 01 00
 (020.486559)  can0  068   [8]  05 BD 00 00 93 00 00 00
 (020.526480)  can0  067   [8]  0B E9 45 87 BF 00 00 00
 (020.526564)  can0  068   [8]  0B F3 E2 86 3F 00 00 00
 (020.586475)  can0  067   [8]  00 C7 D8 87 BF 00 00 00
 (020.586610)  can0  068   [8]  00 C1 63 87 3F 00 00 00
 (020.606459)  can0  067   [8]  05 01 07 01 F4 06 01 00
 (020.606590)  can0  068   [8]  05 D3 05 00 BC 05 00 00
 (020.646461)  can0  067   [8]  0B 62 D6 86 BF 00 00 00
 (020.646646)  can0  068   [8]  0B C7 75 86 3F 00 00 00
 (020.706453)  can0  067   [8]  00 FE D7 87 BF 00 00 00
 (020.706550)  can0  068   [8]  00 43 53 87 3F 00 00 00
 (020.726445)  can0  067   [8]  05 4F 0E 01 59 0E 01 00
 (020.726595)  can0  068   [8]  05 9E 0C 00 97 0C 00 00
 (020.766460)  can0  067   [8]  0B 73 31 86 BF 00 00 00
 (020.766597)  can0  068   [8]  0B A0 D1 85 3F 00 00 00
 (020.826432)  can0  067   [8]  00 12 C9 87 BF 00 00 00
 (020.826613)  can0  068   [8]  00 24 19 87 3F 00 00 00
 (020.846459)  can0  067   [8]  05 54 17 01 43 16 01 00
 (020.846586)  can0  068   [8]  05 AB 10 00 F8 10 00 00
 (020.886427)  can0  067   [8]  0B 1C 4C 85 BF 00 00 00
 (020.886599)  can0  068   [8]  0B A6 EE 84 3F 00 00 00
 (020.946387)  can0  067   [8]  00 29 36 86 BF 00 00 00
 (020.946613)  can0  068   [8]  00 3F 5A 85 3F 00 00 00
 (020.966325)  can0  067   [8]  05 F8 0C 01 FD 0C 01 00
 (020.966606)  can0  068   [8]  05 30 06 00 2D 06 00 00
 (021.006442)  can0  067   [8]  0B 3B 23 84 BF 00 00 00
 (021.006582)  can0  068   [8]  0B 1F C8 83 3F 00 00 00
 (021.046513)  can0  067   [8]  11 06 00 00 00 00 09 01
 (021.046534)  can0  067   [8]  12 80 67 00 01 01 00 00
 (021.046537)  can0  067   [8]  0C 02 A1 89 25 00 40 7E
 (021.046600)  can0  068   [8]  11 06 00 00 00 00 09 01
 (021.046809)  can0  068   [8]  12 80 67 00 01 01 00 00
 (021.046818)  can0  068   [8]  0C 02 A1 AD 2B 00 50 7E
 (021.066426)  can0  067   [8]  00 84 D5 84 BF 00 00 00
 (021.066553)  can0  068   [8]  00 D0 03 84 3F 00 00 00
 (021.086446)  can0  067   [8]  05 67 0E 01 71 0E 01 00
 (021.086521)  can0  068   [8]  05 AA 08 00 B8 08 00 00
 (021.126436)  can0  067   [8]  0B CE B6 82 BF 00 00 00
 (021.126593)  can0  068   [8]  0B 0E 5E 82 3F 00 00 00
 (021.186442)  can0  067   [8]  00 AB 54 83 BF 00 00 00
 (021.186590)  can0  068   [8]  00 74 A9 82 3F 00 00 00
 (021.206442)  can0  067   [8]  05 75 0F 01 CB 0E 01 00
 (021.206593)  can0  068   [8]  05 59 0B 00 08 0B 00 00
 (021.246519)  can0  067   [8]  0B D5 06 81 BF 00 00 00
 (021.246539)  can0  068   [8]  0B 70 B0 80 3F 00 00 00
 (021.306422)  can0  067   [8]  00 CC 15 82 BF 00 00 00
 (021.306557)  can0  068   [8]  00 E2 39 81 3F 00 00 00
 (021.326423)  can0  067   [8]  05 C2 14 01 D0 14 01 00
 (021.326529)  can0  068   [8]  05 31 0D 00 12 0D 00 00
 (021.366439)  can0  067   [8]  0B 11 25 7E BF 00 00 00
 (021.366492)  can0  068   [8]  0B 8E 7E 7D 3F 00 00 00
 (021.426416)  can0  067   [8]  00 9B 73 7E BF 00 00 00
 (021.426526)  can0  068   [8]  00 0C E3 7C 3F 00 00 00
 (021.446391)  can0  067   [8]  05 D7 0A 01 6E 0A 01 00
 (021.446527)  can0  068   [8]  05 64 04 00 D3 04 00 00
 (021.486430)  can0  067   [8]  0B 5F B5 79 BF 00 00 00
 (021.486548)  can0  068   [8]  0B 26 15 79 3F 00 00 00
 (021.546485)  can0  067   [8]  00 C4 79 7B BF 00 00 00
 (021.546509)  can0  068   [8]  00 C4 16 7A 3F 00 00 00
 (021.566432)  can0  067   [8]  05 19 17 01 60 17 01 00
 (021.566560)  can0  068   [8]  05 74 10 00 D4 0F 00 00
 (021.606489)  can0  067   [8]  0B 98 BE 74 BF 00 00 00
 (021.606513)  can0  068   [8]  0B A8 24 74 3F 00 00 00
 (021.666317)  can0  067   [8]  00 67 34 75 BF 00 00 00
 (021.666561)  can0  068   [8]  00 4B 81 73 3F 00 00 00
 (021.686367)  can0  067   [8]  05 A5 09 01 41 09 01 00
 (021.686522)  can0  068   [8]  05 21 03 00 01 03 00 00
 (021.726382)  can0  067   [8]  0B DE 43 6F BF 00 00 00
 (021.726528)  can0  068   [8]  0B C9 B1 6E 3F 00 00 00
 (021.786467)  can0  067   [8]  00 1B 1B 71 BF 00 00 00
 (021.786490)  can0  068   [8]  00 65 B3 6F 3F 00 00 00
 (021.806457)  can0  067   [8]  05 0E 19 01 08 19 01 00
 (021.806480)  can0  068   [8]  05 8E 11 00 CC 10 00 00
 (021.846438)  can0  067   [8]  0B 9E 4E 69 BF 00 00 00
 (021.846584)  can0  068   [8]  0B 3F C1 68 3F 00 00 00
 (021.906405)  can0  067   [8]  00 A6 01 69 BF 00 00 00
 (021.906494)  can0  068   [8]  00 64 56 67 3F 00 00 00
 (021.926382)  can0  067   [8]  05 D6 09 01 09 0A 01 00
 (021.926527)  can0  068   [8]  05 24 03 00 A2 02 00 00
 (021.966205)  can0  067   [8]  0B 65 17 63 BF 00 00 00
 (021.966518)  can0  068   [8]  0B E1 91 62 3F 00 00 00
 (022.026386)  can0  067   [8]  00 93 88 65 BF 00 00 00
 (022.026515)  can0  068   [8]  00 C7 8E 63 3F 00 00 00
 (022.046393)  can0  067   [8]  05 3A 1A 01 51 1A 01 00
 (022.046413)  can0  067   [8]  11 06 00 00 00 00 09 01
 (022.046415)  can0  067   [8]  12 80 67 00 01 01 00 00
 (022.046555)  can0  068   [8]  05 AD 10 00 D0 0F 00 00
 (022.046750)  can0  068   [8]  11 06 00 00 00 00 09 01
 (022.046759)  can0  068   [8]  12 80 67 00 01 01 00 00
 (022.066386)  can0  067   [8]  0C 02 A1 9B DF 00 00 7E
 (022.066508)  can0  068   [8]  0C 02 A1 A4 DF 00 00 7E
 (022.086366)  can0  067   [8]  0B 7E 8E 5C BF 00 00 00
 (022.086509)  can0  068   [8]  0B AF 0D 5C 3F 00 00 00
 (022.146364)  can0  067   [8]  00 49 25 5D BF 00 00 00
 (022.146511)  can0  068   [8]  00 BA AA 5B 3F 00 00 00
 (022.166337)  can0  067   [8]  05 F8 12 01 27 12 01 00
 (022.166516)  can0  068   [8]  05 20 0C 00 A2 0B 00 00
 (022.206351)  can0  067   [8]  0B E4 D4 55 BF 00 00 00
 (022.206487)  can0  068   [8]  0B 5E 5A 55 3F 00 00 00
 (022.266349)  can0  067   [8]  00 A8 C3 56 BF 00 00 00
 (022.266504)  can0  068   [8]  00 20 F1 54 3F 00 00 00
 (022.286348)  can0  067   [8]  05 22 0A 01 75 09 01 00
 (022.286502)  can0  068   [8]  05 2E 02 00 F5 01 00 00
 (022.326348)  can0  067   [8]  0B 05 FF 4E BF 00 00 00
 (022.326510)  can0  068   [8]  0B 35 89 4E 3F 00 00 00
 (022.386366)  can0  067   [8]  00 0F 62 51 BF 00 00 00
 (022.386505)  can0  068   [8]  00 43 68 4F 3F 00 00 00
 (022.406325)  can0  067   [8]  05 47 19 01 32 19 01 00
 (022.406506)  can0  068   [8]  05 E7 0E 00 0D 0E 00 00
 (022.446358)  can0  067   [8]  0B 4A 21 48 BF 00 00 00
 (022.446462)  can0  068   [8]  0B C3 B1 47 3F 00 00 00
 (022.506350)  can0  067   [8]  00 A1 FB 48 BF 00 00 00
 (022.506494)  can0  068   [8]  00 5F 5B 47 3F 00 00 00
 (022.526334)  can0  067   [8]  05 9B 12 01 90 11 01 00
 (022.526494)  can0  068   [8]  05 81 0A 00 40 09 00 00
 (022.566354)  can0  067   [8]  0B 90 43 41 BF 00 00 00
 (022.566500)  can0  068   [8]  0B BF D8 40 3F 00 00 00
 (022.626364)  can0  067   [8]  00 31 19 42 BF 00 00 00
 (022.626496)  can0  068   [8]  00 A8 51 40 3F 00 00 00
 (022.646357)  can0  067   [8]  05 F6 08 01 3D 09 01 00
 (022.646434)  can0  068   [8]  05 64 00 00 38 00 00 00
 (022.686327)  can0  067   [8]  0B D6 65 3A BF 00 00 00
 (022.686489)  can0  068   [8]  0B BB FF 39 3F 00 00 00
 (022.746349)  can0  067   [8]  00 47 09 3D BF 00 00 00
 (022.746490)  can0  068   [8]  00 36 E8 3A 3F 00 00 00
 (022.766351)  can0  067   [8]  05 10 18 01 C3 17 01 00
 (022.766461)  can0  068   [8]  05 71 0C 00 11 0C 00 00
 (022.806365)  can0  067   [8]  0B 89 86 33 BF 00 00 00
 (022.806398)  can0  068   [8]  0B B8 26 33 3F 00 00 00
 (022.866337)  can0  067   [8]  00 FA C6 34 BF 00 00 00
 (022.866480)  can0  068   [8]  00 70 15 33 3F 00 00 00
 (022.886265)  can0  067   [8]  05 ED 12 01 1D 12 01 00
 (022.886535)  can0  068   [8]  05 74 09 00 82 08 00 00
 (022.926310)  can0  067   [8]  0B CF A8 2C BF 00 00 00
 (022.926440)  can0  068   [8]  0B B3 4D 2C 3F 00 00 00
 (022.986342)  can0  067   [8]  00 BC 58 2D BF 00 00 00
 (022.986390)  can0  068   [8]  00 58 9F 2B 3F 00 00 00
 (023.006343)  can0  067   [8]  05 0A 08 01 2D 08 01 00
 (023.006377)  can0  068   [8]  05 27 01 01 5F 01 01 00
 (023.046208)  can0  067   [8]  0B 14 CB 25 BF 00 00 00
 (023.046224)  can0  067   [8]  11 06 00 00 00 00 09 01
 (023.046353)  can0  067   [8]  12 80 67 00 01 01 00 00
 (023.046469)  can0  068   [8]  0B 41 76 25 3F 00 00 00
 (023.046605)  can0  068   [8]  11 06 00 00 00 00 09 01
 (023.046741)  can0  068   [8]  12 80 67 00 01 01 00 00
 (023.066338)  can0  067   [8]  0C 02 A1 9B FF 00 00 7E
 (023.066455)  can0  068   [8]  0C 02 A1 AD FF 00 00 7E
 (023.106338)  can0  067   [8]  00 83 8F 28 BF 00 00 00
 (023.106415)  can0  068   [8]  00 E0 6C 26 3F 00 00 00
 (023.126315)  can0  067   [8]  05 44 16 01 C9 15 01 00
 (023.126446)  can0  068   [8]  05 12 0A 00 8E 09 00 00
 (023.166342)  can0  067   [8]  0B 37 DF 1E BF 00 00 00
 (023.166448)  can0  068   [8]  0B 1B 8F 1E 3F 00 00 00
 (023.226340)  can0  067   [8]  00 C4 7A 20 BF 00 00 00
 (023.226459)  can0  068   [8]  00 3A C9 1E 3F 00 00 00
 (023.246339)  can0  067   [8]  05 41 13 01 39 12 01 00
 (023.246454)  can0  068   [8]  05 7E 08 00 28 08 00 00
 (023.286373)  can0  067   [8]  0B A0 0F 18 BF 00 00 00
 (023.286397)  can0  068   [8]  0B 3A C4 17 3F 00 00 00
 (023.346331)  can0  067   [8]  00 92 93 18 BF 00 00 00
 (023.346381)  can0  068   [8]  00 9C CD 16 3F 00 00 00
 (023.366347)  can0  067   [8]  05 87 07 01 32 07 01 00
 (023.366429)  can0  068   [8]  05 14 02 01 2E 02 01 00
 (023.406313)  can0  067   [8]  0B E5 31 11 BF 00 00 00
 (023.406399)  can0  068   [8]  0B 36 EB 10 3F 00 00 00
 (023.466387)  can0  067   [8]  00 08 11 14 BF 00 00 00
 (023.466413)  can0  068   [8]  00 AF DE 11 3F 00 00 00
 (023.486411)  can0  067   [8]  05 92 14 01 A5 13 01 00
 (023.486435)  can0  068   [8]  05 A5 07 00 E6 06 00 00
 (023.526369)  can0  067   [8]  0B 2C 54 0A BF 00 00 00
 (023.526393)  can0  068   [8]  0B C4 13 0A 3F 00 00 00
 (023.586311)  can0  067   [8]  00 FB 2C 0C BF 00 00 00
 (023.586427)  can0  068   [8]  00 E2 58 0A 3F 00 00 00
 (023.606363)  can0  067   [8]  05 71 13 01 09 12 01 00
 (023.606385)  can0  068   [8]  05 65 07 00 47 07 00 00
 (023.646298)  can0  067   [8]  0B 71 76 03 BF 00 00 00
 (023.646374)  can0  068   [8]  0B C0 3A 03 3F 00 00 00
 (023.706391)  can0  067   [8]  00 1D DE 03 BF 00 00 00
 (023.706415)  can0  068   [8]  00 6F 29 02 3F 00 00 00
 (023.726358)  can0  067   [8]  05 3E 07 01 34 07 01 00
 (023.726381)  can0  068   [8]  05 31 02 01 64 02 01 00
 (023.766370)  can0  067   [8]  0B 6D 31 F9 BE 00 00 00
 (023.766393)  can0  068   [8]  0B 78 C3 F8 3E 00 00 00
 (023.826408)  can0  067   [8]  00 6A E9 FE BE 00 00 00
 (023.826430)  can0  068   [8]  00 FF A0 FA 3E 00 00 00
 (023.846320)  can0  067   [8]  05 CD 11 01 55 14 01 00
 (023.846425)  can0  068   [8]  05 73 05 00 72 04 00 00
 (023.886324)  can0  067   [8]  0B B2 59 EB BE 00 00 00
 (023.886374)  can0  068   [8]  0B 2A F5 EA 3E 00 00 00
 (023.946336)  can0  067   [8]  00 1B B8 EF BE 00 00 00
 (023.946354)  can0  068   [8]  00 CB CA EB 3E 00 00 00
 (023.966289)  can0  067   [8]  05 4F 13 01 D9 13 01 00
 (023.966425)  can0  068   [8]  05 A6 06 00 1C 06 00 00
 (024.006333)  can0  067   [8]  0B 83 BA DD BE 00 00 00
 (024.006352)  can0  068   [8]  0B 8C 62 DD 3E 00 00 00
 (024.046368)  can0  067   [8]  11 06 00 00 00 00 09 01
 (024.046386)  can0  067   [8]  12 80 67 00 01 01 00 00
 (024.046387)  can0  067   [8]  0C 02 A1 AD FF 00 00 7E
 (024.046388)  can0  068   [8]  11 06 00 00 00 00 09 01
 (024.046558)  can0  068   [8]  12 80 67 00 01 01 00 00
 (024.046694)  can0  068   [8]  0C 02 A1 9B FF 00 00 7E
 (024.066309)  can0  067   [8]  00 23 A6 DE BE 00 00 00
 (024.066327)  can0  068   [8]  00 EB 29 DB 3E 00 00 00
 (024.086270)  can0  067   [8]  05 A0 07 01 21 08 01 00
 (024.086420)  can0  068   [8]  05 30 02 01 36 02 01 00
 (024.126303)  can0  067   [8]  0B 0F FF CF BE 00 00 00
 (024.126337)  can0  068   [8]  0B 85 B0 CF 3E 00 00 00
 (024.186305)  can0  067   [8]  00 30 BA D5 BE 00 00 00
 (024.186342)  can0  068   [8]  00 5A 52 D1 3E 00 00 00
 (024.206282)  can0  067   [8]  05 BF 0D 01 24 0F 01 00
 (024.206317)  can0  068   [8]  05 A7 01 00 F8 00 00 00
 (024.246325)  can0  067   [8]  0B 9B 43 C2 BE 00 00 00
 (024.246346)  can0  068   [8]  0B 7C FE C1 3E 00 00 00
 (024.306297)  can0  067   [8]  00 3F 2C C7 BE 00 00 00
 (024.306318)  can0  068   [8]  00 F8 E6 C2 3E 00 00 00
 (024.326217)  can0  067   [8]  05 73 13 01 27 13 01 00
 (024.326356)  can0  068   [8]  05 1B 06 00 21 05 00 00
 (024.366208)  can0  067   [8]  0B 26 88 B4 BE 00 00 00
 (024.366369)  can0  068   [8]  0B 75 4C B4 3E 00 00 00
 (024.426238)  can0  067   [8]  00 99 B2 B5 BE 00 00 00
 (024.426315)  can0  068   [8]  00 F6 2C B2 3E 00 00 00
 (024.446318)  can0  067   [8]  05 40 08 01 6B 08 01 00
 (024.446342)  can0  068   [8]  05 42 02 01 6F 02 01 00
 (024.486236)  can0  067   [8]  0B B1 CC A6 BE 00 00 00
 (024.486370)  can0  068   [8]  0B 6D 9A A6 3E 00 00 00
 (024.546320)  can0  067   [8]  00 48 39 AC BE 00 00 00
 (024.546343)  can0  068   [8]  00 29 CB A7 3E 00 00 00
 (024.566231)  can0  067   [8]  05 4D 0A 01 34 0A 01 00
 (024.566376)  can0  068   [8]  05 E5 01 01 15 02 01 00
 (024.606221)  can0  067   [8]  0B 3C 11 99 BE 00 00 00
 (024.606347)  can0  068   [8]  0B 89 EB 98 3E 00 00 00
 (024.666180)  can0  067   [8]  00 B2 64 9E BE 00 00 00
 (024.666363)  can0  068   [8]  00 DB FC 99 3E 00 00 00
 (024.686158)  can0  067   [8]  05 0E 13 01 B4 12 01 00
 (024.686391)  can0  068   [8]  05 74 05 00 C7 02 00 00
 (024.726218)  can0  067   [8]  0B C8 55 8B BE 00 00 00
 (024.726364)  can0  068   [8]  0B 82 39 8B 3E 00 00 00
 (024.786196)  can0  067   [8]  00 30 EE 8C BE 00 00 00
 (024.786348)  can0  068   [8]  00 65 7B 89 3E 00 00 00
 (024.806215)  can0  067   [8]  05 EB 08 01 9F 08 01 00
 (024.806355)  can0  068   [8]  05 64 02 01 5A 03 01 00
 (024.846160)  can0  067   [8]  0B C8 4D 7B BE 00 00 00
 (024.846393)  can0  068   [8]  0B 15 28 7B 3E 00 00 00
 (024.906171)  can0  067   [8]  00 1A 9C 82 BE 00 00 00
 (024.906339)  can0  068   [8]  00 9F D9 7C 3E 00 00 00
 (024.926188)  can0  067   [8]  05 C9 06 01 C5 06 01 00
 (024.926334)  can0  068   [8]  05 19 05 01 46 05 01 00
 (024.966179)  can0  067   [8]  0B 89 54 60 BE 00 00 00
 (024.966355)  can0  068   [8]  0B AF 41 60 3E 00 00 00
 (025.026178)  can0  067   [8]  00 0B 29 6C BE 00 00 00
 (025.026328)  can0  068   [8]  00 CE 4C 63 3E 00 00 00
 (025.046203)  can0  067   [8]  05 13 12 01 68 11 01 00
 (025.046222)  can0  067   [8]  11 06 00 00 00 00 09 01
 (025.046224)  can0  067   [8]  12 80 67 00 01 01 00 00
 (025.046342)  can0  068   [8]  05 08 04 00 8F 03 00 00
 (025.046471)  can0  068   [8]  11 06 00 00 00 00 09 01
 (025.046609)  can0  068   [8]  12 80 67 00 01 01 00 00
 (025.066191)  can0  067   [8]  0C 02 A1 92 FF 00 00 7E
 (025.066326)  can0  068   [8]  0C 02 A1 A4 FF 00 00 7E
 (025.086206)  can0  067   [8]  0B C9 17 46 BE 00 00 00
 (025.086355)  can0  068   [8]  0B C9 17 46 3E 00 00 00
 (025.146187)  can0  067   [8]  00 F3 17 4A BE 00 00 00
 (025.146347)  can0  068   [8]  00 1A 00 43 3E 00 00 00
 (025.166166)  can0  067   [8]  05 22 07 01 2A 06 01 00
 (025.166325)  can0  068   [8]  05 70 04 01 32 05 01 00
 (025.206172)  can0  067   [8]  0B F2 B6 2C BE 00 00 00
 (025.206327)  can0  068   [8]  0B 3A BD 2C 3E 00 00 00
 (025.266150)  can0  067   [8]  00 29 FE 39 BE 00 00 00
 (025.266325)  can0  068   [8]  00 5F E9 30 3E 00 00 00
 (025.286183)  can0  067   [8]  05 87 09 01 26 09 01 00
 (025.286328)  can0  068   [8]  05 D6 03 01 61 04 01 00
 (025.326143)  can0  067   [8]  0B 7F 1A 15 BE 00 00 00
 (025.326274)  can0  068   [8]  0B A1 33 15 3E 00 00 00
 (025.386045)  can0  067   [8]  00 AD F3 1F BE 00 00 00
 (025.386324)  can0  068   [8]  00 2E 32 18 3E 00 00 00
 (025.406168)  can0  067   [8]  05 96 0D 01 F5 0C 01 00
 (025.406331)  can0  068   [8]  05 9F 00 00 11 01 01 00
 (025.446146)  can0  067   [8]  0B 38 07 FE BD 00 00 00
 (025.446274)  can0  068   [8]  0B 0D 46 FE 3D 00 00 00
 (025.506139)  can0  067   [8]  00 5A 23 07 BE 00 00 00
 (025.506274)  can0  068   [8]  00 F3 D4 FD 3D 00 00 00
 (025.526170)  can0  067   [8]  05 6A 01 00 60 01 00 00
 (025.526248)  can0  068   [8]  05 E8 0D 01 00 0D 01 00
 (025.566146)  can0  067   [8]  0B E3 DF D5 BD 00 00 00
 (025.566280)  can0  068   [8]  0B B9 1E D6 3D 00 00 00
 (025.626165)  can0  067   [8]  00 1E 05 F1 BD 00 00 00
 (025.626202)  can0  068   [8]  00 A0 3E E2 3D 00 00 00
 (025.646133)  can0  067   [8]  05 E3 0C 01 C5 0C 01 00
 (025.646269)  can0  068   [8]  05 5B 00 00 52 00 01 00
 (025.686133)  can0  067   [8]  0B D5 FD B1 BD 00 00 00
 (025.686260)  can0  068   [8]  0B AB 3C B2 3D 00 00 00
 (025.746023)  can0  067   [8]  00 F0 04 C6 BD 00 00 00
 (025.746274)  can0  068   [8]  00 63 FC B4 3D 00 00 00
 (025.766126)  can0  067   [8]  05 D5 00 00 90 00 00 00
 (025.766262)  can0  068   [8]  05 60 0E 01 4A 0D 01 00
 (025.806167)  can0  067   [8]  0B EE 47 92 BD 00 00 00
 (025.806295)  can0  068   [8]  0B 54 93 92 3D 00 00 00
 (025.866110)  can0  067   [8]  00 93 C6 AA BD 00 00 00
 (025.866257)  can0  068   [8]  00 58 32 9C 3D 00 00 00
 (025.886145)  can0  067   [8]  05 EB 06 01 F0 06 01 00
 (025.886225)  can0  068   [8]  05 8D 04 01 86 05 01 00
 (025.926110)  can0  067   [8]  0B 99 AE 6D BD 00 00 00
 (025.926254)  can0  068   [8]  0B 66 45 6E 3D 00 00 00
 (025.986136)  can0  067   [8]  00 59 2D 95 BD 00 00 00
 (025.986269)  can0  068   [8]  00 79 29 83 3D 00 00 00
 (026.006124)  can0  067   [8]  05 DA 06 01 FC 06 01 00
 (026.006259)  can0  068   [8]  05 65 07 01 E6 06 01 00
 (026.046144)  can0  067   [8]  0B C5 3E 3F BD 00 00 00
 (026.046165)  can0  067   [8]  11 06 00 00 00 00 09 01
 (026.046167)  can0  067   [8]  12 80 67 00 01 01 00 00
 (026.046293)  can0  068   [8]  0B 91 D5 3F 3D 00 00 00
 (026.046451)  can0  068   [8]  11 06 00 00 00 00 09 01
 (026.046460)  can0  068   [8]  12 80 67 00 01 01 00 00
 (026.066120)  can0  067   [8]  0C 02 A1 9B FB 00 00 7E
 (026.066254)  can0  068   [8]  0C 02 A1 89 FA 00 00 7E
 (026.106122)  can0  067   [8]  00 AB FE 6C BD 00 00 00
 (026.106252)  can0  068   [8]  00 51 42 49 3D 00 00 00
 (026.126116)  can0  067   [8]  05 6B 00 01 05 00 00 00
 (026.126261)  can0  068   [8]  05 91 0E 01 01 0E 01 00
 (026.166098)  can0  067   [8]  0B 7E 59 19 BD 00 00 00
 (026.166251)  can0  068   [8]  0B 28 D7 19 3D 00 00 00
 (026.226092)  can0  067   [8]  00 B3 7F 4C BD 00 00 00
 (026.226244)  can0  068   [8]  00 8A 1E 2B 3D 00 00 00
 (026.246115)  can0  067   [8]  05 F4 00 01 C0 00 01 00
 (026.246254)  can0  068   [8]  05 50 0C 01 60 0C 01 00
 (026.286106)  can0  067   [8]  0B 48 CB F7 BC 00 00 00
 (026.286253)  can0  068   [8]  0B 58 94 F8 3C 00 00 00
 (026.346109)  can0  067   [8]  00 C2 26 34 BD 00 00 00
 (026.346246)  can0  068   [8]  00 93 B7 15 3D 00 00 00
 (026.366114)  can0  067   [8]  05 06 02 01 2E 02 01 00
 (026.366248)  can0  068   [8]  05 F6 09 01 ED 09 01 00
 (026.406072)  can0  067   [8]  0B 5D FD CC BC 00 00 00
 (026.406249)  can0  068   [8]  0B E5 61 CD 3C 00 00 00
 (026.466114)  can0  067   [8]  00 B8 E8 20 BD 00 00 00
 (026.466247)  can0  068   [8]  00 9B 42 03 3D 00 00 00
 (026.486091)  can0  067   [8]  05 9A 01 01 8D 01 01 00
 (026.486248)  can0  068   [8]  05 E3 0A 01 80 09 01 00
 (026.526113)  can0  067   [8]  0B 84 89 AF BC 00 00 00
 (026.526236)  can0  068   [8]  0B 0C EE AF 3C 00 00 00
 (026.586103)  can0  067   [8]  00 10 61 12 BD 00 00 00
 (026.586243)  can0  068   [8]  00 AB 6D E0 3C 00 00 00
 (026.606074)  can0  067   [8]  05 84 00 01 8A 00 01 00
 (026.606243)  can0  068   [8]  05 31 0D 01 FE 0C 01 00
 (026.646089)  can0  067   [8]  0B 12 79 9D BC 00 00 00
 (026.646241)  can0  068   [8]  0B 9A DD 9D 3C 00 00 00
 (026.706089)  can0  067   [8]  00 81 D6 09 BD 00 00 00
 (026.706238)  can0  068   [8]  00 C2 C1 CE 3C 00 00 00
 (026.726100)  can0  067   [8]  05 37 00 01 21 00 01 00
 (026.726236)  can0  068   [8]  05 7F 0D 01 52 0D 01 00
 (026.766107)  can0  067   [8]  0B 0E DA 93 BC 00 00 00
 (026.766240)  can0  068   [8]  0B 0E DA 93 3C 00 00 00
 (026.826101)  can0  067   [8]  00 9B 42 03 BD 00 00 00
 (026.826225)  can0  068   [8]  00 8D C7 C2 3C 00 00 00
 (026.846045)  can0  067   [8]  05 71 00 00 7C 02 01 00
 (026.846203)  can0  068   [8]  05 E0 0D 01 05 0E 01 00
 (026.886103)  can0  067   [8]  0B 7A BA 8F BC 00 00 00
 (026.886184)  can0  068   [8]  0B BE EC 8F 3C 00 00 00
 (026.946058)  can0  067   [8]  00 35 F7 02 BD 00 00 00
 (026.946191)  can0  068   [8]  00 8D C7 C2 3C 00 00 00
 (026.966101)  can0  067   [8]  05 47 00 01 43 00 01 00
 (026.966182)  can0  068   [8]  05 3E 0D 01 FE 0C 01 00
 (027.006070)  can0  067   [8]  0B AE 23 8F BC 00 00 00
 (027.006151)  can0  068   [8]  0B AE 23 8F 3C 00 00 00
 (027.046101)  can0  067   [8]  11 06 00 00 00 00 29 01
 (027.046122)  can0  067   [8]  12 80 67 00 01 01 00 00
 (027.046123)  can0  067   [8]  0C 02 A1 B6 32 00 10 7E
 (027.046218)  can0  068   [8]  11 06 00 00 00 00 29 01
 (027.046356)  can0  068   [8]  12 80 67 00 01 01 00 00
 (027.046496)  can0  068   [8]  0C 02 A1 A4 32 00 10 7E
 (027.066074)  can0  067   [8]  00 35 F7 02 BD 00 00 00
 (027.066185)  can0  068   [8]  00 49 95 C2 3C 00 00 00
 (027.086068)  can0  067   [8]  05 34 0B 00 2E 0B 00 00
 (027.086222)  can0  068   [8]  05 AD 18 01 CA 18 01 00
 (027.126003)  can0  067   [8]  0B 6A F1 8E BC 00 00 00
 (027.126189)  can0  068   [8]  0B 6A F1 8E 3C 00 00 00
 (027.186069)  can0  067   [8]  00 35 F7 02 BD 00 00 00
 (027.186214)  can0  068   [8]  00 49 95 C2 3C 00 00 00
 (027.206088)  can0  067   [8]  05 33 0B 00 40 0B 00 00
 (027.206220)  can0  068   [8]  05 B7 18 01 C1 18 01 00
 (027.245998)  can0  067   [8]  0B 6A F1 8E BC 00 00 00
 (027.246171)  can0  068   [8]  0B 6A F1 8E 3C 00 00 00
 (027.306039)  can0  067   [8]  00 57 10 03 BD 00 00 00
 (027.306185)  can0  068   [8]  00 8D C7 C2 3C 00 00 00
 (027.325984)  can0  067   [8]  05 47 0B 00 40 0B 00 00
 (027.326177)  can0  068   [8]  05 A3 18 01 40 18 01 00
 (027.366006)  can0  067   [8]  0B 6A F1 8E BC 00 00 00
 (027.366159)  can0  068   [8]  0B 6A F1 8E 3C 00 00 00
 (027.426036)  can0  067   [8]  00 57 10 03 BD 00 00 00
 (027.426160)  can0  068   [8]  00 8D C7 C2 3C 00 00 00
 (027.446034)  can0  067   [8]  05 3C 0B 00 40 0B 00 00
 (027.446176)  can0  068   [8]  05 AC 18 01 AE 18 01 00
 (027.486028)  can0  067   [8]  0B 6A F1 8E BC 00 00 00
 (027.486122)  can0  068   [8]  0B 6A F1 8E 3C 00 00 00
 (027.546047)  can0  067   [8]  00 35 F7 02 BD 00 00 00
 (027.546192)  can0  068   [8]  00 49 95 C2 3C 00 00 00
 (027.566012)  can0  067   [8]  05 3B 0B 00 37 0B 00 00
 (027.566155)  can0  068   [8]  05 B6 18 01 5E 19 01 00
 (027.606038)  can0  067   [8]  0B 6A F1 8E BC 00 00 00
 (027.606138)  can0  068   [8]  0B 6A F1 8E 3C 00 00 00
 (027.666048)  can0  067   [8]  00 57 10 03 BD 00 00 00
 (027.666167)  can0  068   [8]  00 49 95 C2 3C 00 00 00
 (027.686007)  can0  067   [8]  05 44 0B 00 2E 0B 00 00
 (027.686153)  can0  068   [8]  05 C0 18 01 EF 18 01 00
 (027.726028)  can0  067   [8]  0B 6A F1 8E BC 00 00 00
 (027.726154)  can0  068   [8]  0B 6A F1 8E 3C 00 00 00
 (027.786105)  can0  067   [8]  00 35 F7 02 BD 00 00 00
 (027.786132)  can0  068   [8]  00 8D C7 C2 3C 00 00 00
 (027.806015)  can0  067   [8]  05 44 0B 00 52 0B 00 00
 (027.806147)  can0  068   [8]  05 B6 18 01 B8 18 01 00
 (027.846052)  can0  067   [8]  0B 6A F1 8E BC 00 00 00
 (027.846150)  can0  068   [8]  0B 6A F1 8E 3C 00 00 00
 (027.906029)  can0  067   [8]  00 57 10 03 BD 00 00 00
 (027.906167)  can0  068   [8]  00 8D C7 C2 3C 00 00 00
 (027.926019)  can0  067   [8]  05 39 0B 00 40 0B 00 00
 (027.926159)  can0  068   [8]  05 BF 18 01 AF 18 01 00
 (027.965983)  can0  067   [8]  0B 6A F1 8E BC 00 00 00
 (027.966143)  can0  068   [8]  0B 6A F1 8E 3C 00 00 00
 (028.026018)  can0  067   [8]  00 35 F7 02 BD 00 00 00
 (028.026156)  can0  068   [8]  00 49 95 C2 3C 00 00 00
 (028.046032)  can0  067   [8]  05 38 0B 00 40 0B 00 00
 (028.046053)  can0  067   [8]  11 06 00 00 00 00 29 01
 (028.046055)  can0  067   [8]  12 80 67 00 01 01 00 00
 (028.046170)  can0  068   [8]  05 BF 18 01 93 18 01 00
 (028.046302)  can0  068   [8]  11 06 00 00 00 00 29 01
 (028.046432)  can0  068   [8]  12 80 67 00 01 01 00 00
 (028.066032)  can0  067   [8]  0C 02 A1 B6 00 00 80 40
 (028.066108)  can0  068   [8]  0C 02 A1 A4 00 00 80 10
 (028.085944)  can0  067   [8]  0B 6A F1 8E BC 00 00 00
 (028.086187)  can0  068   [8]  0B 6A F1 8E 3C 00 00 00
 (028.145991)  can0  067   [8]  00 79 29 03 BD 00 00 00
 (028.146070)  can0  068   [8]  00 49 95 C2 3C 00 00 00
 (028.165972)  can0  067   [8]  05 1A 0B 00 2E 0B 00 00
 (028.166136)  can0  068   [8]  05 BF 18 01 14 19 01 00
 (028.205941)  can0  067   [8]  0B 6A F1 8E BC 00 00 00
 (028.206186)  can0  068   [8]  0B 6A F1 8E 3C 00 00 00
 (028.265973)  can0  067   [8]  00 79 29 03 BD 00 00 00
 (028.266149)  can0  068   [8]  00 49 95 C2 3C 00 00 00
 (028.285964)  can0  067   [8]  05 2D 0B 00 2D 0B 00 00
 (028.286146)  can0  068   [8]  05 BE 18 01 CA 18 01 00
 (028.325927)  can0  067   [8]  0B 6A F1 8E BC 00 00 00
 (028.326100)  can0  068   [8]  0B 6A F1 8E 3C 00 00 00
 (028.385953)  can0  067   [8]  00 79 29 03 BD 00 00 00
 (028.386130)  can0  068   [8]  00 49 95 C2 3C 00 00 00
 (028.405937)  can0  067   [8]  05 36 0B 00 49 0B 00 00
 (028.406100)  can0  068   [8]  05 B4 18 01 52 18 01 00
 (028.445969)  can0  067   [8]  0B 6A F1 8E BC 00 00 00
 (028.446106)  can0  068   [8]  0B 6A F1 8E 3C 00 00 00
 (028.505980)  can0  067   [8]  00 57 10 03 BD 00 00 00
 (028.506150)  can0  068   [8]  00 49 95 C2 3C 00 00 00
 (028.525978)  can0  067   [8]  05 35 0B 00 40 0B 00 00
 (028.526124)  can0  068   [8]  05 B4 18 01 B8 18 01 00
 (028.565953)  can0  067   [8]  0B 6A F1 8E BC 00 00 00
 (028.566093)  can0  068   [8]  0B 6A F1 8E 3C 00 00 00
 (028.625985)  can0  067   [8]  00 79 29 03 BD 00 00 00
 (028.626065)  can0  068   [8]  00 8D C7 C2 3C 00 00 00
 (028.645941)  can0  067   [8]  05 3F 0B 00 24 0B 00 00
 (028.646093)  can0  068   [8]  05 B3 18 01 80 18 01 00
 (028.685939)  can0  067   [8]  0B 6A F1 8E BC 00 00 00
 (028.686083)  can0  068   [8]  0B 6A F1 8E 3C 00 00 00
 (028.745963)  can0  067   [8]  00 79 29 03 BD 00 00 00
 (028.746084)  can0  068   [8]  00 49 95 C2 3C 00 00 00
 (028.765944)  can0  067   [8]  05 34 0B 00 2E 0B 00 00
 (028.766087)  can0  068   [8]  05 B3 18 01 CA 18 01 00
 (028.805957)  can0  067   [8]  0B 6A F1 8E BC 00 00 00
 (028.806086)  can0  068   [8]  0B 6A F1 8E 3C 00 00 00
 (028.865980)  can0  067   [8]  00 13 DE 02 BD 00 00 00
 (028.866018)  can0  068   [8]  00 8D C7 C2 3C 00 00 00
 (028.885949)  can0  067   [8]  05 33 0B 00 25 0B 00 00
 (028.886088)  can0  068   [8]  05 BD 18 01 A5 18 01 00
 (028.925944)  can0  067   [8]  0B 6A F1 8E BC 00 00 00
 (028.926082)  can0  068   [8]  0B 6A F1 8E 3C 00 00 00
 (028.985935)  can0  067   [8]  00 79 29 03 BD 00 00 00
 (028.986082)  can0  068   [8]  00 49 95 C2 3C 00 00 00
 (029.005928)  can0  067   [8]  05 32 0B 00 37 0B 00 00
 (029.006082)  can0  068   [8]  05 C6 18 01 D3 18 01 00
 (029.045914)  can0  067   [8]  0B 6A F1 8E BC 00 00 00
 (029.045933)  can0  067   [8]  11 06 00 00 00 00 29 01
 (029.045935)  can0  067   [8]  12 80 67 00 01 01 00 00
 (029.046084)  can0  068   [8]  0B 6A F1 8E 3C 00 00 00
 (029.046213)  can0  068   [8]  11 06 00 00 00 00 29 01
 (029.046344)  can0  068   [8]  12 80 67 00 01 01 00 00
 (029.065934)  can0  067   [8]  0C 02 A1 B6 00 00 70 40
 (029.066092)  can0  068   [8]  0C 02 A1 A4 00 00 70 10
 (029.105888)  can0  067   [8]  00 79 29 03 BD 00 00 00
 (029.106065)  can0  068   [8]  00 8D C7 C2 3C 00 00 00
 (029.125912)  can0  067   [8]  05 1E 0B 00 25 0B 00 00
 (029.126065)  can0  068   [8]  05 C6 18 01 B8 18 01 00
 (029.165911)  can0  067   [8]  0B 6A F1 8E BC 00 00 00
 (029.166069)  can0  068   [8]  0B 6A F1 8E 3C 00 00 00
 (029.225939)  can0  067   [8]  00 57 10 03 BD 00 00 00
 (029.226071)  can0  068   [8]  00 49 95 C2 3C 00 00 00
 (029.245922)  can0  067   [8]  05 31 0B 00 37 0B 00 00
 (029.246063)  can0  068   [8]  05 BC 18 01 D3 18 01 00
 (029.285913)  can0  067   [8]  0B 6A F1 8E BC 00 00 00
 (029.286058)  can0  068   [8]  0B 6A F1 8E 3C 00 00 00
 (029.345926)  can0  067   [8]  00 35 F7 02 BD 00 00 00
 (029.346069)  can0  068   [8]  00 49 95 C2 3C 00 00 00
 (029.365915)  can0  067   [8]  05 30 0B 00 37 0B 00 00
 (029.366065)  can0  068   [8]  05 B1 18 01 A5 18 01 00
 (029.405874)  can0  067   [8]  0B 6A F1 8E BC 00 00 00
 (029.406138)  can0  068   [8]  0B 6A F1 8E 3C 00 00 00
 (029.465888)  can0  067   [8]  00 57 10 03 BD 00 00 00
 (029.466070)  can0  068   [8]  00 8D C7 C2 3C 00 00 00
 (029.485857)  can0  067   [8]  05 30 0B 00 2D 0B 00 00
 (029.486109)  can0  068   [8]  05 BB 18 01 2D 18 01 00
 (029.525755)  can0  067   [8]  0B 6A F1 8E BC 00 00 00
 (029.526038)  can0  068   [8]  0B 6A F1 8E 3C 00 00 00
 (029.585886)  can0  067   [8]  00 79 29 03 BD 00 00 00
 (029.586061)  can0  068   [8]  00 49 95 C2 3C 00 00 00
 (029.605878)  can0  067   [8]  05 25 0B 00 25 0B 00 00
 (029.606023)  can0  068   [8]  05 B1 18 01 A5 18 01 00
 (029.645902)  can0  067   [8]  0B 6A F1 8E BC 00 00 00
 (029.646048)  can0  068   [8]  0B 6A F1 8E 3C 00 00 00
 (029.705910)  can0  067   [8]  00 57 10 03 BD 00 00 00
 (029.706038)  can0  068   [8]  00 8D C7 C2 3C 00 00 00
 (029.725890)  can0  067   [8]  05 42 0B 00 49 0B 00 00
 (029.726046)  can0  068   [8]  05 B0 18 01 EF 18 01 00
 (029.765913)  can0  067   [8]  0B 6A F1 8E BC 00 00 00
 (029.766045)  can0  068   [8]  0B 6A F1 8E 3C 00 00 00
 (029.825880)  can0  067   [8]  00 79 29 03 BD 00 00 00
 (029.826050)  can0  068   [8]  00 8D C7 C2 3C 00 00 00
 (029.845853)  can0  067   [8]  05 23 0B 00 1B 0B 00 00
 (029.846101)  can0  068   [8]  05 B0 18 01 F9 18 01 00
 (029.885870)  can0  067   [8]  0B 6A F1 8E BC 00 00 00
 (029.886000)  can0  068   [8]  0B 6A F1 8E 3C 00 00 00
 (029.945816)  can0  067   [8]  00 79 29 03 BD 00 00 00
 (029.946055)  can0  068   [8]  00 49 95 C2 3C 00 00 00
 (029.965751)  can0  067   [8]  05 23 0B 00 37 0B 00 00
 (029.966060)  can0  068   [8]  05 B0 18 01 CA 18 01 00
 (030.005845)  can0  067   [8]  0B 6A F1 8E BC 00 00 00
 (030.006037)  can0  068   [8]  0B 6A F1 8E 3C 00 00 00
 (030.044828)  can0  064   [8]  67 01 92 0A 86 BF 06 00
 (030.045777)  can0  067   [8]  11 06 00 00 00 00 09 01
 (030.045792)  can0  067   [8]  12 80 67 00 01 01 00 00
 (030.045909)  can0  067   [8]  0C 02 A1 B6 00 00 80 40
 (030.046020)  can0  068   [8]  11 06 00 00 00 00 29 01
 (030.046200)  can0  068   [8]  12 80 67 00 01 01 00 00
 (030.046210)  can0  068   [8]  0C 02 A1 A4 00 00 80 10
 (030.046340)  can0  064   [8]  68 01 92 0A 86 3F 06 00
 (030.065763)  can0  067   [8]  00 BD 5B 03 BD 00 00 00
 (030.066030)  can0  068   [8]  00 8D C7 C2 3C 00 00 00
 (030.066139)  can0  068   [8]  11 06 00 00 00 00 09 01
 (030.085874)  can0  067   [8]  05 B8 2B 00 82 2B 00 00
 (030.085959)  can0  068   [8]  05 59 2C 01 9D 2A 01 00
 (030.125808)  can0  067   [8]  0B 57 10 03 BD 00 00 00
 (030.126049)  can0  068   [8]  0B 49 95 C2 3C 00 00 00
 (030.185827)  can0  067   [8]  00 A8 84 05 BD 00 00 00
 (030.185939)  can0  068   [8]  00 49 95 C2 3C 00 00 00
 (030.205866)  can0  067   [8]  05 D1 2E 00 01 30 00 00
 (030.205998)  can0  068   [8]  05 E1 2F 01 D8 2F 01 00
 (030.245869)  can0  067   [8]  0B 33 70 04 BD 00 00 00
 (030.245995)  can0  068   [8]  0B 45 87 C5 3C 00 00 00
 (030.305886)  can0  067   [8]  00 FB F8 07 BD 00 00 00
 (030.305996)  can0  068   [8]  00 9D 90 C3 3C 00 00 00
 (030.325840)  can0  067   [8]  05 D8 2F 00 EE 2F 00 00
 (030.325984)  can0  068   [8]  05 BB 31 01 95 31 01 00
 (030.365883)  can0  067   [8]  0B B5 3F 09 BD 00 00 00
 (030.365925)  can0  068   [8]  0B 4A 26 CF 3C 00 00 00
 (030.425847)  can0  067   [8]  00 C6 08 0A BD 00 00 00
 (030.425998)  can0  068   [8]  00 69 27 C4 3C 00 00 00
 (030.445820)  can0  067   [8]  05 C8 32 00 27 33 00 00
 (030.445981)  can0  068   [8]  05 57 35 01 4C 35 01 00
 (030.485853)  can0  067   [8]  0B A8 8E 13 BD 00 00 00
 (030.485991)  can0  068   [8]  0B 2F C4 E3 3C 00 00 00
 (030.545815)  can0  067   [8]  00 B1 31 0C BD 00 00 00
 (030.545988)  can0  068   [8]  00 12 1E C6 3C 00 00 00
 (030.565758)  can0  067   [8]  05 7E 38 00 44 38 00 00
 (030.566003)  can0  068   [8]  05 87 3B 01 63 3B 01 00
 (030.605842)  can0  067   [8]  0B 4D 08 25 BD 00 00 00
 (030.605986)  can0  068   [8]  0B DF 74 03 3D 00 00 00
 (030.665815)  can0  067   [8]  00 A4 80 16 BD 00 00 00
 (030.665983)  can0  068   [8]  00 CE 7C D2 3C 00 00 00
 (030.685803)  can0  067   [8]  05 03 37 00 B8 37 00 00
 (030.685982)  can0  068   [8]  05 A5 38 01 2D 39 01 00
 (030.725815)  can0  067   [8]  0B F7 20 40 BD 00 00 00
 (030.725979)  can0  068   [8]  0B 89 8D 1E 3D 00 00 00
 (030.785716)  can0  067   [8]  00 BA DE 92 BD 00 00 00
 (030.786039)  can0  068   [8]  00 7C 37 80 3D 00 00 00
 (030.805799)  can0  067   [8]  05 38 13 00 68 13 00 00
 (030.805978)  can0  068   [8]  05 D4 14 01 D0 14 01 00
 (030.845793)  can0  067   [8]  0B 60 1F 66 BD 00 00 00
 (030.846024)  can0  068   [8]  0B 35 BE 44 3D 00 00 00
 (030.905770)  can0  067   [8]  00 E5 9F 92 BD 00 00 00
 (030.906005)  can0  068   [8]  00 2D D8 7F 3D 00 00 00
 (030.925799)  can0  067   [8]  05 1B 25 00 AF 25 00 00
 (030.925964)  can0  068   [8]  05 FE 26 01 7A 27 01 00
 (030.965784)  can0  067   [8]  0B 76 A7 8B BD 00 00 00
 (030.966015)  can0  068   [8]  0B 4B 52 76 3D 00 00 00
 (031.025784)  can0  067   [8]  00 B8 57 94 BD 00 00 00
 (031.025958)  can0  068   [8]  00 C0 69 80 3D 00 00 00
 (031.045818)  can0  067   [8]  05 97 3A 00 81 3A 00 00
 (031.045837)  can0  067   [8]  11 06 00 00 00 00 09 01
 (031.045839)  can0  067   [8]  12 80 67 00 01 01 00 00
 (031.045993)  can0  068   [8]  05 74 3D 01 60 3D 01 00
 (031.046000)  can0  068   [8]  12 80 67 00 01 01 00 00
 (031.046300)  can0  068   [8]  0C 02 A1 AD 3D 00 50 7E
 (031.065779)  can0  067   [8]  0C 02 A1 9B 3E 00 50 7E
 (031.065955)  can0  068   [8]  11 06 00 00 00 00 09 01
 (031.085773)  can0  067   [8]  0B 60 E4 A9 BD 00 00 00
 (031.085959)  can0  068   [8]  0B 53 98 99 3D 00 00 00
 (031.145778)  can0  067   [8]  00 D7 89 B7 BD 00 00 00
 (031.145949)  can0  068   [8]  00 52 A2 A7 3D 00 00 00
 (031.165802)  can0  067   [8]  05 34 20 00 A0 20 00 00
 (031.165955)  can0  068   [8]  05 D2 21 01 A7 21 01 00
 (031.205764)  can0  067   [8]  0B DC B9 CD BD 00 00 00
 (031.206003)  can0  068   [8]  0B A4 AC BD 3D 00 00 00
 (031.265774)  can0  067   [8]  00 C1 2F 03 BE 00 00 00
 (031.265953)  can0  068   [8]  00 D6 C4 F3 3D 00 00 00
 (031.285760)  can0  067   [8]  05 F9 19 00 5E 19 00 00
 (031.285950)  can0  068   [8]  05 57 1C 01 CF 1B 01 00
 (031.325705)  can0  067   [8]  0B 7D 34 F7 BD 00 00 00
 (031.325865)  can0  068   [8]  0B 19 66 E7 3D 00 00 00
 (031.385793)  can0  067   [8]  00 8F 18 0C BE 00 00 00
 (031.385914)  can0  068   [8]  00 C6 03 03 3E 00 00 00
 (031.405781)  can0  067   [8]  05 64 28 00 7C 24 00 00
 (031.405914)  can0  068   [8]  05 16 2B 01 07 2A 01 00
 (031.445788)  can0  067   [8]  0B 8F 1D 13 BE 00 00 00
 (031.445938)  can0  068   [8]  0B 59 62 0B 3E 00 00 00
 (031.505760)  can0  067   [8]  00 1A 65 28 BE 00 00 00
 (031.505987)  can0  068   [8]  00 82 32 20 3E 00 00 00
 (031.525749)  can0  067   [8]  05 3B 1B 00 FA 1A 00 00
 (031.525912)  can0  068   [8]  05 E0 1C 01 1D 1D 01 00
 (031.565768)  can0  067   [8]  0B 0B 28 2D BE 00 00 00
 (031.565852)  can0  068   [8]  0B 19 9F 25 3E 00 00 00
 (031.625716)  can0  067   [8]  00 C9 D8 41 BE 00 00 00
 (031.625934)  can0  068   [8]  00 30 59 38 3E 00 00 00
 (031.645784)  can0  067   [8]  05 DB 28 00 43 27 00 00
 (031.645943)  can0  068   [8]  05 1F 2D 01 7C 2C 01 00
 (031.685789)  can0  067   [8]  0B 08 3C 49 BE 00 00 00
 (031.685916)  can0  068   [8]  0B 5A E5 41 3E 00 00 00
 (031.745776)  can0  067   [8]  00 14 CC 64 BE 00 00 00
 (031.745914)  can0  068   [8]  00 BE 7E 5B 3E 00 00 00
 (031.765756)  can0  067   [8]  05 2E 1B 00 83 1B 00 00
 (031.765906)  can0  068   [8]  05 5A 1E 01 8F 1E 01 00
 (031.805745)  can0  067   [8]  0B 6B 14 67 BE 00 00 00
 (031.805938)  can0  068   [8]  0B 01 F0 5F 3E 00 00 00
 (031.865768)  can0  067   [8]  00 05 25 7D BE 00 00 00
 (031.865930)  can0  068   [8]  00 BF A0 74 3E 00 00 00
