 (000.000000)  can0  064   [8]  67 08 00 01 01 01 00 00
 (000.002652)  can0  064   [8]  68 08 00 01 01 01 00 00
 (000.006115)  can0  064   [8]  6D 01 00 00 00 00 07 00
 (000.008031)  can0  067   [8]  0C 02 B0 0C 01 06 00 00
 (000.008231)  can0  067   [8]  12 80 66 01 01 01 00 00
 (000.008308)  can0  068   [8]  0C 02 B0 0C 01 06 00 00
 (000.008374)  can0  067   [8]  0C 02 A1 D2 00 00 10 04
 (000.008512)  can0  064   [8]  6E 01 00 00 00 00 07 00
 (000.008521)  can0  068   [8]  12 80 66 01 01 01 00 00
 (000.008792)  can0  068   [8]  0C 02 A1 ED 00 01 10 20
 (000.048298)  can0  067   [8]  00 4D 34 CC BB 00 00 00
 (000.048315)  can0  068   [8]  00 C9 16 87 BB 00 00 00
 (000.068287)  can0  067   [8]  05 00 00 01 00 00 01 00
 (000.068306)  can0  068   [8]  05 00 00 01 00 00 01 00
 (000.108294)  can0  067   [8]  0B 00 00 00 00 00 00 00
 (000.108315)  can0  068   [8]  0B 00 00 00 00 00 00 00
 (000.168306)  can0  067   [8]  00 2E A2 CA BB 00 00 00
 (000.168324)  can0  068   [8]  00 C9 16 87 BB 00 00 00
 (000.188303)  can0  067   [8]  05 00 00 01 00 00 01 00
 (000.188324)  can0  068   [8]  05 00 00 01 00 00 01 00
 (000.228298)  can0  067   [8]  0B 00 00 00 00 00 00 00
 (000.228317)  can0  068   [8]  0B 00 00 00 00 00 00 00
 (000.288255)  can0  067   [8]  00 6D C6 CD BB 00 00 00
 (000.288270)  can0  068   [8]  00 C9 16 87 BB 00 00 00
 (000.308324)  can0  067   [8]  05 00 00 01 00 00 01 00
 (000.308342)  can0  067   [8]  11 00 00 00 00 00 00 00
 (000.308343)  can0  068   [8]  05 00 00 01 00 00 01 00
 (000.308485)  can0  068   [8]  11 00 00 00 00 00 00 00
 (000.348314)  can0  067   [8]  0B 00 00 00 00 00 00 00
 (000.348333)  can0  068   [8]  0B 00 00 00 00 00 00 00
 (000.408282)  can0  067   [8]  00 6D C6 CD BB 00 00 00
 (000.408300)  can0  068   [8]  00 C9 16 87 BB 00 00 00
 (000.428286)  can0  067   [8]  05 00 00 01 00 00 01 00
 (000.428304)  can0  068   [8]  05 00 00 01 00 00 01 00
 (000.468291)  can0  067   [8]  0B 00 00 00 00 00 00 00
 (000.468309)  can0  068   [8]  0B 00 00 00 00 00 00 00
 (000.528287)  can0  067   [8]  00 5D FD CC BB 00 00 00
 (000.528305)  can0  068   [8]  00 C9 16 87 BB 00 00 00
 (000.548292)  can0  067   [8]  05 00 00 01 00 00 01 00
 (000.548312)  can0  068   [8]  05 00 00 01 00 00 01 00
 (000.588292)  can0  067   [8]  0B 00 00 00 00 00 00 00
 (000.588311)  can0  068   [8]  0B 00 00 00 00 00 00 00
 (000.648300)  can0  067   [8]  00 4D 34 CC BB 00 00 00
 (000.648321)  can0  068   [8]  00 D9 DF 87 BB 00 00 00
 (000.668294)  can0  067   [8]  05 00 00 01 00 00 01 00
 (000.668314)  can0  068   [8]  05 00 00 01 00 00 01 00
 (000.708296)  can0  067   [8]  0B 00 00 00 00 00 00 00
 (000.708316)  can0  068   [8]  0B 00 00 00 00 00 00 00
 (000.768284)  can0  067   [8]  00 5D FD CC BB 00 00 00
 (000.768301)  can0  068   [8]  00 C9 16 87 BB 00 00 00
 (000.788291)  can0  067   [8]  05 00 00 01 00 00 01 00
 (000.788309)  can0  068   [8]  05 00 00 01 00 00 01 00
 (000.828034)  can0  067   [8]  0B 00 00 00 00 00 00 00
 (000.828325)  can0  068   [8]  0B 00 00 00 00 00 00 00
 (000.888290)  can0  067   [8]  00 4D 34 CC BB 00 00 00
 (000.888312)  can0  068   [8]  00 C9 16 87 BB 00 00 00
 (000.908296)  can0  067   [8]  05 00 00 01 00 00 01 00
 (000.908316)  can0  068   [8]  05 00 00 01 00 00 01 00
 (000.948312)  can0  067   [8]  0B 00 00 00 00 00 00 00
 (000.948335)  can0  068   [8]  0B 00 00 00 00 00 00 00
 (001.008263)  can0  067   [8]  00 5D FD CC BB 00 00 00
 (001.008281)  can0  067   [8]  12 80 66 01 01 01 00 00
 (001.008282)  can0  068   [8]  00 B9 4D 86 BB 00 00 00
 (001.008445)  can0  068   [8]  12 80 66 01 01 01 00 00
 (001.028252)  can0  067   [8]  05 00 00 01 00 00 01 00
 (001.028270)  can0  068   [8]  05 00 00 01 00 00 01 00
 (001.068268)  can0  067   [8]  0B 00 00 00 00 00 00 00
 (001.068288)  can0  068   [8]  0B 00 00 00 00 00 00 00
 (001.128281)  can0  067   [8]  00 5D FD CC BB 00 00 00
 (001.128305)  can0  068   [8]  00 C9 16 87 BB 00 00 00
 (001.148305)  can0  067   [8]  05 00 00 01 00 00 01 00
 (001.148329)  can0  068   [8]  05 00 00 01 00 00 01 00
 (001.188289)  can0  067   [8]  0B 00 00 00 00 00 00 00
 (001.188313)  can0  068   [8]  0B 00 00 00 00 00 00 00
 (001.248201)  can0  067   [8]  00 4D 34 CC BB 00 00 00
 (001.248289)  can0  068   [8]  00 C9 16 87 BB 00 00 00
 (001.268241)  can0  067   [8]  05 00 00 01 00 00 01 00
 (001.268261)  can0  068   [8]  05 00 00 01 00 00 01 00
 (001.308247)  can0  067   [8]  0B 00 00 00 00 00 00 00
 (001.308266)  can0  067   [8]  11 00 00 00 00 00 00 00
 (001.308267)  can0  068   [8]  0B 00 00 00 00 00 00 00
 (001.308411)  can0  068   [8]  11 00 00 00 00 00 00 00
 (001.368269)  can0  067   [8]  00 4D 34 CC BB 00 00 00
 (001.368289)  can0  068   [8]  00 C9 16 87 BB 00 00 00
 (001.388267)  can0  067   [8]  05 00 00 01 00 00 01 00
 (001.388287)  can0  068   [8]  05 00 00 01 00 00 01 00
 (001.428274)  can0  067   [8]  0B 00 00 00 00 00 00 00
 (001.428296)  can0  068   [8]  0B 00 00 00 00 00 00 00
 (001.488267)  can0  067   [8]  00 6D C6 CD BB 00 00 00
 (001.488288)  can0  068   [8]  00 D9 DF 87 BB 00 00 00
 (001.508265)  can0  067   [8]  05 00 00 01 00 00 01 00
 (001.508284)  can0  068   [8]  05 00 00 01 00 00 01 00
 (001.548272)  can0  067   [8]  0B 00 00 00 00 00 00 00
 (001.548293)  can0  068   [8]  0B 00 00 00 00 00 00 00
 (001.608286)  can0  067   [8]  00 4D 34 CC BB 00 00 00
 (001.608310)  can0  068   [8]  00 C9 16 87 BB 00 00 00
 (001.628296)  can0  067   [8]  05 00 00 01 00 00 01 00
 (001.628327)  can0  068   [8]  05 00 00 01 00 00 01 00
 (001.668278)  can0  067   [8]  0B 00 00 00 00 00 00 00
 (001.668300)  can0  068   [8]  0B 00 00 00 00 00 00 00
 (001.728276)  can0  067   [8]  00 5D FD CC BB 00 00 00
 (001.728297)  can0  068   [8]  00 C9 16 87 BB 00 00 00
 (001.748276)  can0  067   [8]  05 00 00 01 00 00 01 00
 (001.748298)  can0  068   [8]  05 00 00 01 00 00 01 00
 (001.788223)  can0  067   [8]  0B 00 00 00 00 00 00 00
 (001.788241)  can0  068   [8]  0B 00 00 00 00 00 00 00
 (001.848261)  can0  067   [8]  00 6D C6 CD BB 00 00 00
 (001.848281)  can0  068   [8]  00 C9 16 87 BB 00 00 00
 (001.868267)  can0  067   [8]  05 00 00 01 00 00 01 00
 (001.868288)  can0  068   [8]  05 00 00 01 00 00 01 00
 (001.908270)  can0  067   [8]  0B 00 00 00 00 00 00 00
 (001.908292)  can0  068   [8]  0B 00 00 00 00 00 00 00
 (001.968280)  can0  067   [8]  00 6D C6 CD BB 00 00 00
 (001.968303)  can0  068   [8]  00 C9 16 87 BB 00 00 00
 (001.988294)  can0  067   [8]  05 00 00 01 00 00 01 00
 (001.988321)  can0  068   [8]  05 00 00 01 00 00 01 00
 (002.008270)  can0  067   [8]  12 80 66 01 01 01 00 00
 (002.008294)  can0  068   [8]  12 80 66 01 01 01 00 00
 (002.028264)  can0  067   [8]  0B 00 00 00 00 00 00 00
 (002.028287)  can0  068   [8]  0B 00 00 00 00 00 00 00
 (002.088231)  can0  067   [8]  00 5D FD CC BB 00 00 00
 (002.088256)  can0  068   [8]  00 C9 16 87 BB 00 00 00
 (002.108269)  can0  067   [8]  05 00 00 01 00 00 01 00
 (002.108289)  can0  068   [8]  05 00 00 01 00 00 01 00
 (002.148269)  can0  067   [8]  0B 00 00 00 00 00 00 00
 (002.148289)  can0  068   [8]  0B 00 00 00 00 00 00 00
 (002.208229)  can0  067   [8]  00 4D 34 CC BB 00 00 00
 (002.208250)  can0  068   [8]  00 C9 16 87 BB 00 00 00
 (002.228231)  can0  067   [8]  05 00 00 01 00 00 01 00
 (002.228254)  can0  068   [8]  05 00 00 01 00 00 01 00
 (002.268225)  can0  067   [8]  0B 00 00 00 00 00 00 00
 (002.268246)  can0  068   [8]  0B 00 00 00 00 00 00 00
 (002.308253)  can0  067   [8]  11 00 00 00 00 00 00 00
 (002.308275)  can0  068   [8]  11 00 00 00 00 00 00 00
 (002.328152)  can0  067   [8]  00 6D C6 CD BB 00 00 00
 (002.328268)  can0  068   [8]  00 C9 16 87 BB 00 00 00
 (002.348054)  can0  067   [8]  05 00 00 01 00 00 01 00
 (002.348282)  can0  068   [8]  05 00 00 01 00 00 01 00
 (002.388092)  can0  067   [8]  0B 00 00 00 00 00 00 00
 (002.388233)  can0  068   [8]  0B 00 00 00 00 00 00 00
 (002.448226)  can0  067   [8]  00 6D C6 CD BB 00 00 00
 (002.448258)  can0  068   [8]  00 C9 16 87 BB 00 00 00
 (002.468219)  can0  067   [8]  05 00 00 01 00 00 01 00
 (002.468249)  can0  068   [8]  05 00 00 01 00 00 01 00
 (002.508237)  can0  067   [8]  0B 00 00 00 00 00 00 00
 (002.508268)  can0  068   [8]  0B 00 00 00 00 00 00 00
 (002.568237)  can0  067   [8]  00 8E 58 CF BB 00 00 00
 (002.568267)  can0  068   [8]  00 B9 4D 86 BB 00 00 00
 (002.588175)  can0  067   [8]  05 00 00 01 00 00 01 00
 (002.588272)  can0  068   [8]  05 00 00 01 00 00 01 00
 (002.628223)  can0  067   [8]  0B 00 00 00 00 00 00 00
 (002.628252)  can0  068   [8]  0B 00 00 00 00 00 00 00
 (002.688281)  can0  067   [8]  00 5D FD CC BB 00 00 00
 (002.688319)  can0  068   [8]  00 C9 16 87 BB 00 00 00
 (002.708028)  can0  067   [8]  05 00 00 01 00 00 01 00
 (002.708235)  can0  068   [8]  05 00 00 01 00 00 01 00
 (002.748131)  can0  067   [8]  0B 00 00 00 00 00 00 00
 (002.748290)  can0  068   [8]  0B 00 00 00 00 00 00 00
 (002.808247)  can0  067   [8]  00 5D FD CC BB 00 00 00
 (002.808267)  can0  068   [8]  00 C9 16 87 BB 00 00 00
 (002.828254)  can0  067   [8]  05 00 00 01 00 00 01 00
 (002.828276)  can0  068   [8]  05 00 00 01 00 00 01 00
 (002.868264)  can0  067   [8]  0B 00 00 00 00 00 00 00
 (002.868286)  can0  068   [8]  0B 00 00 00 00 00 00 00
 (002.928250)  can0  067   [8]  00 5D FD CC BB 00 00 00
 (002.928270)  can0  068   [8]  00 B9 4D 86 BB 00 00 00
 (002.948220)  can0  067   [8]  05 00 00 01 00 00 01 00
 (002.948238)  can0  068   [8]  05 00 00 01 00 00 01 00
 (002.988230)  can0  067   [8]  0B 00 00 00 00 00 00 00
 (002.988249)  can0  068   [8]  0B 00 00 00 00 00 00 00
 (003.008253)  can0  067   [8]  12 80 66 01 01 01 00 00
 (003.008273)  can0  068   [8]  12 80 66 01 01 01 00 00
 (003.048268)  can0  067   [8]  00 4D 34 CC BB 00 00 00
 (003.048290)  can0  068   [8]  00 C9 16 87 BB 00 00 00
 (003.068256)  can0  067   [8]  05 00 00 01 00 00 01 00
 (003.068278)  can0  068   [8]  05 00 00 01 00 00 01 00
 (003.108178)  can0  067   [8]  0B 00 00 00 00 00 00 00
 (003.108255)  can0  068   [8]  0B 00 00 00 00 00 00 00
 (003.168248)  can0  067   [8]  00 6D C6 CD BB 00 00 00
 (003.168267)  can0  068   [8]  00 B9 4D 86 BB 00 00 00
 (003.188242)  can0  067   [8]  05 00 00 01 00 00 01 00
 (003.188261)  can0  068   [8]  05 00 00 01 00 00 01 00
 (003.228205)  can0  067   [8]  0B 00 00 00 00 00 00 00
 (003.228220)  can0  068   [8]  0B 00 00 00 00 00 00 00
 (003.288229)  can0  067   [8]  00 6D C6 CD BB 00 00 00
 (003.288249)  can0  068   [8]  00 C9 16 87 BB 00 00 00
 (003.308138)  can0  067   [8]  05 00 00 01 00 00 01 00
 (003.308157)  can0  067   [8]  11 00 00 00 00 00 00 00
 (003.308304)  can0  068   [8]  05 00 00 01 00 00 01 00
 (003.308311)  can0  068   [8]  11 00 00 00 00 00 00 00
 (003.348188)  can0  067   [8]  0B 00 00 00 00 00 00 00
 (003.348236)  can0  068   [8]  0B 00 00 00 00 00 00 00
 (003.408241)  can0  067   [8]  00 5D FD CC BB 00 00 00
 (003.408263)  can0  068   [8]  00 C9 16 87 BB 00 00 00
 (003.428230)  can0  067   [8]  05 00 00 01 00 00 01 00
 (003.428252)  can0  068   [8]  05 00 00 01 00 00 01 00
 (003.468230)  can0  067   [8]  0B 00 00 00 00 00 00 00
 (003.468250)  can0  068   [8]  0B 00 00 00 00 00 00 00
 (003.528231)  can0  067   [8]  00 6D C6 CD BB 00 00 00
 (003.528251)  can0  068   [8]  00 B9 4D 86 BB 00 00 00
 (003.548245)  can0  067   [8]  05 00 00 01 00 00 01 00
 (003.548265)  can0  068   [8]  05 00 00 01 00 00 01 00
 (003.588233)  can0  067   [8]  0B 00 00 00 00 00 00 00
 (003.588255)  can0  068   [8]  0B 00 00 00 00 00 00 00
 (003.648229)  can0  067   [8]  00 6D C6 CD BB 00 00 00
 (003.648252)  can0  068   [8]  00 C9 16 87 BB 00 00 00
 (003.668183)  can0  067   [8]  05 00 00 01 00 00 01 00
 (003.668255)  can0  068   [8]  05 00 00 01 00 00 01 00
 (003.708231)  can0  067   [8]  0B 00 00 00 00 00 00 00
 (003.708265)  can0  068   [8]  0B 00 00 00 00 00 00 00
 (003.768185)  can0  067   [8]  00 3E 6B CB BB 00 00 00
 (003.768285)  can0  068   [8]  00 C9 16 87 BB 00 00 00
 (003.788186)  can0  067   [8]  05 00 00 01 00 00 01 00
 (003.788251)  can0  068   [8]  05 00 00 01 00 00 01 00
 (003.828063)  can0  067   [8]  0B 00 00 00 00 00 00 00
 (003.828320)  can0  068   [8]  0B 00 00 00 00 00 00 00
 (003.888226)  can0  067   [8]  00 6D C6 CD BB 00 00 00
 (003.888263)  can0  068   [8]  00 C9 16 87 BB 00 00 00
 (003.908238)  can0  067   [8]  05 00 00 01 00 00 01 00
 (003.908274)  can0  068   [8]  05 00 00 01 00 00 01 00
 (003.948215)  can0  067   [8]  0B 00 00 00 00 00 00 00
 (003.948252)  can0  068   [8]  0B 00 00 00 00 00 00 00
 (004.008277)  can0  067   [8]  00 5D FD CC BB 00 00 00
 (004.008341)  can0  067   [8]  12 80 66 01 01 01 00 00
 (004.008343)  can0  068   [8]  00 C9 16 87 BB 00 00 00
 (004.008408)  can0  068   [8]  12 80 66 01 01 01 00 00
 (004.028164)  can0  067   [8]  05 00 00 01 00 00 01 00
 (004.028235)  can0  068   [8]  05 00 00 01 00 00 01 00
 (004.068251)  can0  067   [8]  0B 00 00 00 00 00 00 00
 (004.068285)  can0  068   [8]  0B 00 00 00 00 00 00 00
 (004.128199)  can0  067   [8]  00 5D FD CC BB 00 00 00
 (004.128228)  can0  068   [8]  00 C9 16 87 BB 00 00 00
 (004.148084)  can0  067   [8]  05 00 00 01 00 00 01 00
 (004.148164)  can0  068   [8]  05 00 00 01 00 00 01 00
 (004.188224)  can0  067   [8]  0B 00 00 00 00 00 00 00
 (004.188256)  can0  068   [8]  0B 00 00 00 00 00 00 00
 (004.248231)  can0  067   [8]  00 5D FD CC BB 00 00 00
 (004.248268)  can0  068   [8]  00 C9 16 87 BB 00 00 00
 (004.268225)  can0  067   [8]  05 00 00 01 00 00 01 00
 (004.268264)  can0  068   [8]  05 00 00 01 00 00 01 00
 (004.308173)  can0  067   [8]  0B 00 00 00 00 00 00 00
 (004.308202)  can0  067   [8]  11 00 00 00 00 00 00 00
 (004.308237)  can0  068   [8]  0B 00 00 00 00 00 00 00
 (004.308320)  can0  068   [8]  11 00 00 00 00 00 00 00
 (004.368195)  can0  067   [8]  00 5D FD CC BB 00 00 00
 (004.368226)  can0  068   [8]  00 C9 16 87 BB 00 00 00
 (004.388191)  can0  067   [8]  05 00 00 01 00 00 01 00
 (004.388220)  can0  068   [8]  05 00 00 01 00 00 01 00
 (004.428192)  can0  067   [8]  0B 00 00 00 00 00 00 00
 (004.428221)  can0  068   [8]  0B 00 00 00 00 00 00 00
 (004.488263)  can0  067   [8]  00 6D C6 CD BB 00 00 00
 (004.488298)  can0  068   [8]  00 C9 16 87 BB 00 00 00
 (004.508211)  can0  067   [8]  05 00 00 01 00 00 01 00
 (004.508247)  can0  068   [8]  05 00 00 01 00 00 01 00
 (004.548206)  can0  067   [8]  0B 00 00 00 00 00 00 00
 (004.548243)  can0  068   [8]  0B 00 00 00 00 00 00 00
 (004.608157)  can0  067   [8]  00 5D FD CC BB 00 00 00
 (004.608186)  can0  068   [8]  00 D9 DF 87 BB 00 00 00
 (004.628154)  can0  067   [8]  05 00 00 01 00 00 01 00
 (004.628183)  can0  068   [8]  05 00 00 01 00 00 01 00
 (004.668157)  can0  067   [8]  0B 00 00 00 00 00 00 00
 (004.668189)  can0  068   [8]  0B 00 00 00 00 00 00 00
 (004.728160)  can0  067   [8]  00 5D FD CC BB 00 00 00
 (004.728194)  can0  068   [8]  00 C9 16 87 BB 00 00 00
 (004.748138)  can0  067   [8]  05 00 00 01 00 00 01 00
 (004.748166)  can0  068   [8]  05 00 00 01 00 00 01 00
 (004.788167)  can0  067   [8]  0B 00 00 00 00 00 00 00
 (004.788199)  can0  068   [8]  0B 00 00 00 00 00 00 00
 (004.848187)  can0  067   [8]  00 5D FD CC BB 00 00 00
 (004.848225)  can0  068   [8]  00 D9 DF 87 BB 00 00 00
 (004.868170)  can0  067   [8]  05 00 00 01 00 00 01 00
 (004.868203)  can0  068   [8]  05 00 00 01 00 00 01 00
 (004.908174)  can0  067   [8]  0B 00 00 00 00 00 00 00
 (004.908216)  can0  068   [8]  0B 00 00 00 00 00 00 00
 (004.968193)  can0  067   [8]  00 4D 34 CC BB 00 00 00
 (004.968222)  can0  068   [8]  00 B9 4D 86 BB 00 00 00
 (004.988165)  can0  067   [8]  05 00 00 01 00 00 01 00
 (004.988197)  can0  068   [8]  05 00 00 01 00 00 01 00
 (005.008149)  can0  067   [8]  12 80 66 01 01 01 00 00
 (005.008177)  can0  068   [8]  12 80 66 01 01 01 00 00
 (005.028179)  can0  067   [8]  0B 00 00 00 00 00 00 00
 (005.028208)  can0  068   [8]  0B 00 00 00 00 00 00 00
 (005.088178)  can0  067   [8]  00 6D C6 CD BB 00 00 00
 (005.088203)  can0  068   [8]  00 C9 16 87 BB 00 00 00
 (005.108159)  can0  067   [8]  05 00 00 01 00 00 01 00
 (005.108187)  can0  068   [8]  05 00 00 01 00 00 01 00
 (005.148180)  can0  067   [8]  0B 00 00 00 00 00 00 00
 (005.148213)  can0  068   [8]  0B 00 00 00 00 00 00 00
 (005.208176)  can0  067   [8]  00 5D FD CC BB 00 00 00
 (005.208203)  can0  068   [8]  00 C9 16 87 BB 00 00 00
 (005.228180)  can0  067   [8]  05 00 00 01 00 00 01 00
 (005.228210)  can0  068   [8]  05 00 00 01 00 00 01 00
 (005.268201)  can0  067   [8]  0B 00 00 00 00 00 00 00
 (005.268234)  can0  068   [8]  0B 00 00 00 00 00 00 00
 (005.308191)  can0  067   [8]  11 00 00 00 00 00 00 00
 (005.308232)  can0  068   [8]  11 00 00 00 00 00 00 00
 (005.328180)  can0  067   [8]  00 6D C6 CD BB 00 00 00
 (005.328212)  can0  068   [8]  00 C9 16 87 BB 00 00 00
 (005.348156)  can0  067   [8]  05 00 00 01 00 00 01 00
 (005.348189)  can0  068   [8]  05 00 00 01 00 00 01 00
 (005.388158)  can0  067   [8]  0B 00 00 00 00 00 00 00
 (005.388190)  can0  068   [8]  0B 00 00 00 00 00 00 00
 (005.448180)  can0  067   [8]  00 6D C6 CD BB 00 00 00
 (005.448209)  can0  068   [8]  00 C9 16 87 BB 00 00 00
 (005.468191)  can0  067   [8]  05 00 00 01 00 00 01 00
 (005.468220)  can0  068   [8]  05 00 00 01 00 00 01 00
 (005.508149)  can0  067   [8]  0B 00 00 00 00 00 00 00
 (005.508178)  can0  068   [8]  0B 00 00 00 00 00 00 00
 (005.568145)  can0  067   [8]  00 4D 34 CC BB 00 00 00
 (005.568178)  can0  068   [8]  00 C9 16 87 BB 00 00 00
 (005.588175)  can0  067   [8]  05 00 00 01 00 00 01 00
 (005.588208)  can0  068   [8]  05 00 00 01 00 00 01 00
 (005.628150)  can0  067   [8]  0B 00 00 00 00 00 00 00
 (005.628184)  can0  068   [8]  0B 00 00 00 00 00 00 00
 (005.688163)  can0  067   [8]  00 7E 8F CE BB 00 00 00
 (005.688195)  can0  068   [8]  00 D9 DF 87 BB 00 00 00
 (005.708170)  can0  067   [8]  05 00 00 01 00 00 01 00
 (005.708205)  can0  068   [8]  05 00 00 01 00 00 01 00
 (005.748159)  can0  067   [8]  0B 00 00 00 00 00 00 00
 (005.748195)  can0  068   [8]  0B 00 00 00 00 00 00 00
 (005.808138)  can0  067   [8]  00 5D FD CC BB 00 00 00
 (005.808169)  can0  068   [8]  00 C9 16 87 BB 00 00 00
 (005.828116)  can0  067   [8]  05 00 00 01 00 00 01 00
 (005.828150)  can0  068   [8]  05 00 00 01 00 00 01 00
 (005.868159)  can0  067   [8]  0B 00 00 00 00 00 00 00
 (005.868195)  can0  068   [8]  0B 00 00 00 00 00 00 00
 (005.928137)  can0  067   [8]  00 6D C6 CD BB 00 00 00
 (005.928167)  can0  068   [8]  00 B9 4D 86 BB 00 00 00
 (005.948120)  can0  067   [8]  05 00 00 01 00 00 01 00
 (005.948148)  can0  068   [8]  05 00 00 01 00 00 01 00
 (005.988149)  can0  067   [8]  0B 00 00 00 00 00 00 00
 (005.988181)  can0  068   [8]  0B 00 00 00 00 00 00 00
 (006.008119)  can0  067   [8]  12 80 66 01 01 01 00 00
 (006.008153)  can0  068   [8]  12 80 66 01 01 01 00 00
 (006.048154)  can0  067   [8]  00 4D 34 CC BB 00 00 00
 (006.048190)  can0  068   [8]  00 C9 16 87 BB 00 00 00
 (006.068135)  can0  067   [8]  05 00 00 01 00 00 01 00
 (006.068171)  can0  068   [8]  05 00 00 01 00 00 01 00
 (006.108163)  can0  067   [8]  0B 00 00 00 00 00 00 00
 (006.108205)  can0  068   [8]  0B 00 00 00 00 00 00 00
 (006.168152)  can0  067   [8]  00 5D FD CC BB 00 00 00
 (006.168180)  can0  068   [8]  00 C9 16 87 BB 00 00 00
 (006.188128)  can0  067   [8]  05 00 00 01 00 00 01 00
 (006.188155)  can0  068   [8]  05 00 00 01 00 00 01 00
 (006.228140)  can0  067   [8]  0B 00 00 00 00 00 00 00
 (006.228171)  can0  068   [8]  0B 00 00 00 00 00 00 00
 (006.288140)  can0  067   [8]  00 4D 34 CC BB 00 00 00
 (006.288171)  can0  068   [8]  00 C9 16 87 BB 00 00 00
 (006.308184)  can0  067   [8]  05 00 00 01 00 00 01 00
 (006.308217)  can0  067   [8]  11 00 00 00 00 00 00 00
 (006.308219)  can0  068   [8]  05 00 00 01 00 00 01 00
 (006.308265)  can0  068   [8]  11 00 00 00 00 00 00 00
 (006.348162)  can0  067   [8]  0B 00 00 00 00 00 00 00
 (006.348191)  can0  068   [8]  0B 00 00 00 00 00 00 00
 (006.408126)  can0  067   [8]  00 6D C6 CD BB 00 00 00
 (006.408158)  can0  068   [8]  00 C9 16 87 BB 00 00 00
 (006.428124)  can0  067   [8]  05 00 00 01 00 00 01 00
 (006.428162)  can0  068   [8]  05 00 00 01 00 00 01 00
 (006.468138)  can0  067   [8]  0B 00 00 00 00 00 00 00
 (006.468166)  can0  068   [8]  0B 00 00 00 00 00 00 00
 (006.527930)  can0  067   [8]  00 6D C6 CD BB 00 00 00
 (006.528100)  can0  068   [8]  00 C9 16 87 BB 00 00 00
 (006.548119)  can0  067   [8]  05 00 00 01 00 00 01 00
 (006.548137)  can0  068   [8]  05 00 00 01 00 00 01 00
 (006.588110)  can0  067   [8]  0B 00 00 00 00 00 00 00
 (006.588129)  can0  068   [8]  0B 00 00 00 00 00 00 00
 (006.648122)  can0  067   [8]  00 5D FD CC BB 00 00 00
 (006.648147)  can0  068   [8]  00 C9 16 87 BB 00 00 00
 (006.668144)  can0  067   [8]  05 00 00 01 00 00 01 00
 (006.668169)  can0  068   [8]  05 00 00 01 00 00 01 00
 (006.708119)  can0  067   [8]  0B 00 00 00 00 00 00 00
 (006.708143)  can0  068   [8]  0B 00 00 00 00 00 00 00
 (006.768153)  can0  067   [8]  00 4D 34 CC BB 00 00 00
 (006.768177)  can0  068   [8]  00 B9 4D 86 BB 00 00 00
 (006.788116)  can0  067   [8]  05 00 00 01 00 00 01 00
 (006.788140)  can0  068   [8]  05 00 00 01 00 00 01 00
 (006.828133)  can0  067   [8]  0B 00 00 00 00 00 00 00
 (006.828153)  can0  068   [8]  0B 00 00 00 00 00 00 00
 (006.888122)  can0  067   [8]  00 8E 58 CF BB 00 00 00
 (006.888144)  can0  068   [8]  00 C9 16 87 BB 00 00 00
 (006.908144)  can0  067   [8]  05 00 00 01 00 00 01 00
 (006.908167)  can0  068   [8]  05 00 00 01 00 00 01 00
 (006.948136)  can0  067   [8]  0B 00 00 00 00 00 00 00
 (006.948158)  can0  068   [8]  0B 00 00 00 00 00 00 00
 (007.008129)  can0  067   [8]  00 5D FD CC BB 00 00 00
 (007.008150)  can0  067   [8]  12 80 66 01 01 01 00 00
 (007.008152)  can0  068   [8]  00 C9 16 87 BB 00 00 00
 (007.008254)  can0  068   [8]  12 80 66 01 01 01 00 00
 (007.028029)  can0  067   [8]  05 00 00 01 00 00 01 00
 (007.028090)  can0  068   [8]  05 00 00 01 00 00 01 00
 (007.068120)  can0  067   [8]  0B 00 00 00 00 00 00 00
 (007.068145)  can0  068   [8]  0B 00 00 00 00 00 00 00
 (007.128178)  can0  067   [8]  00 5D FD CC BB 00 00 00
 (007.128200)  can0  068   [8]  00 C9 16 87 BB 00 00 00
 (007.148115)  can0  067   [8]  05 00 00 01 00 00 01 00
 (007.148137)  can0  068   [8]  05 00 00 01 00 00 01 00
 (007.188103)  can0  067   [8]  0B 00 00 00 00 00 00 00
 (007.188125)  can0  068   [8]  0B 00 00 00 00 00 00 00
 (007.248100)  can0  067   [8]  00 6D C6 CD BB 00 00 00
 (007.248118)  can0  068   [8]  00 C9 16 87 BB 00 00 00
 (007.268101)  can0  067   [8]  05 00 00 01 00 00 01 00
 (007.268119)  can0  068   [8]  05 00 00 01 00 00 01 00
 (007.308102)  can0  067   [8]  0B 00 00 00 00 00 00 00
 (007.308121)  can0  067   [8]  11 00 00 00 00 00 00 00
 (007.308123)  can0  068   [8]  0B 00 00 00 00 00 00 00
 (007.308360)  can0  068   [8]  11 00 00 00 00 00 00 00
 (007.368097)  can0  067   [8]  00 6D C6 CD BB 00 00 00
 (007.368117)  can0  068   [8]  00 C9 16 87 BB 00 00 00
 (007.388085)  can0  067   [8]  05 00 00 01 00 00 01 00
 (007.388104)  can0  068   [8]  05 00 00 01 00 00 01 00
 (007.428085)  can0  067   [8]  0B 00 00 00 00 00 00 00
 (007.428106)  can0  068   [8]  0B 00 00 00 00 00 00 00
 (007.488122)  can0  067   [8]  00 5D FD CC BB 00 00 00
 (007.488143)  can0  068   [8]  00 C9 16 87 BB 00 00 00
 (007.508095)  can0  067   [8]  05 00 00 01 00 00 01 00
 (007.508116)  can0  068   [8]  05 00 00 01 00 00 01 00
 (007.548077)  can0  067   [8]  0B 00 00 00 00 00 00 00
 (007.548097)  can0  068   [8]  0B 00 00 00 00 00 00 00
 (007.608087)  can0  067   [8]  00 6D C6 CD BB 00 00 00
 (007.608109)  can0  068   [8]  00 C9 16 87 BB 00 00 00
 (007.628108)  can0  067   [8]  05 00 00 01 00 00 01 00
 (007.628131)  can0  068   [8]  05 00 00 01 00 00 01 00
 (007.668104)  can0  067   [8]  0B 00 00 00 00 00 00 00
 (007.668126)  can0  068   [8]  0B 00 00 00 00 00 00 00
 (007.728111)  can0  067   [8]  00 6D C6 CD BB 00 00 00
 (007.728132)  can0  068   [8]  00 C9 16 87 BB 00 00 00
 (007.748092)  can0  067   [8]  05 00 00 01 00 00 01 00
 (007.748116)  can0  068   [8]  05 00 00 01 00 00 01 00
 (007.788112)  can0  067   [8]  0B 00 00 00 00 00 00 00
 (007.788138)  can0  068   [8]  0B 00 00 00 00 00 00 00
 (007.848117)  can0  067   [8]  00 6D C6 CD BB 00 00 00
 (007.848133)  can0  068   [8]  00 C9 16 87 BB 00 00 00
 (007.868078)  can0  067   [8]  05 00 00 01 00 00 01 00
 (007.868095)  can0  068   [8]  05 00 00 01 00 00 01 00
 (007.908098)  can0  067   [8]  0B 00 00 00 00 00 00 00
 (007.908118)  can0  068   [8]  0B 00 00 00 00 00 00 00
 (007.968108)  can0  067   [8]  00 6D C6 CD BB 00 00 00
 (007.968129)  can0  068   [8]  00 C9 16 87 BB 00 00 00
 (007.988082)  can0  067   [8]  05 00 00 01 00 00 01 00
 (007.988104)  can0  068   [8]  05 00 00 01 00 00 01 00
 (008.008107)  can0  067   [8]  12 80 66 01 01 01 00 00
 (008.008129)  can0  068   [8]  12 80 66 01 01 01 00 00
 (008.027976)  can0  067   [8]  0B 00 00 00 00 00 00 00
 (008.028167)  can0  068   [8]  0B 00 00 00 00 00 00 00
 (008.088070)  can0  067   [8]  00 5D FD CC BB 00 00 00
 (008.088092)  can0  068   [8]  00 C9 16 87 BB 00 00 00
 (008.108047)  can0  067   [8]  05 00 00 01 00 00 01 00
 (008.108163)  can0  068   [8]  05 00 00 01 00 00 01 00
 (008.148083)  can0  067   [8]  0B 00 00 00 00 00 00 00
 (008.148102)  can0  068   [8]  0B 00 00 00 00 00 00 00
 (008.208104)  can0  067   [8]  00 6D C6 CD BB 00 00 00
 (008.208126)  can0  068   [8]  00 C9 16 87 BB 00 00 00
 (008.228092)  can0  067   [8]  05 00 00 01 00 00 01 00
 (008.228112)  can0  068   [8]  05 00 00 01 00 00 01 00
 (008.268082)  can0  067   [8]  0B 00 00 00 00 00 00 00
 (008.268102)  can0  068   [8]  0B 00 00 00 00 00 00 00
 (008.308084)  can0  067   [8]  11 00 00 00 00 00 00 00
 (008.308106)  can0  068   [8]  11 00 00 00 00 00 00 00
 (008.328096)  can0  067   [8]  00 5D FD CC BB 00 00 00
 (008.328114)  can0  068   [8]  00 B9 4D 86 BB 00 00 00
 (008.348069)  can0  067   [8]  05 00 00 01 00 00 01 00
 (008.348088)  can0  068   [8]  05 00 00 01 00 00 01 00
 (008.388123)  can0  067   [8]  0B 00 00 00 00 00 00 00
 (008.388148)  can0  068   [8]  0B 00 00 00 00 00 00 00
 (008.448151)  can0  067   [8]  00 5D FD CC BB 00 00 00
 (008.448182)  can0  068   [8]  00 C9 16 87 BB 00 00 00
 (008.468119)  can0  067   [8]  05 00 00 01 00 00 01 00
 (008.468147)  can0  068   [8]  05 00 00 01 00 00 01 00
 (008.508090)  can0  067   [8]  0B 00 00 00 00 00 00 00
 (008.508113)  can0  068   [8]  0B 00 00 00 00 00 00 00
 (008.568049)  can0  067   [8]  00 5D FD CC BB 00 00 00
 (008.568071)  can0  068   [8]  00 C9 16 87 BB 00 00 00
 (008.588084)  can0  067   [8]  05 00 00 01 00 00 01 00
 (008.588107)  can0  068   [8]  05 00 00 01 00 00 01 00
 (008.628071)  can0  067   [8]  0B 00 00 00 00 00 00 00
 (008.628093)  can0  068   [8]  0B 00 00 00 00 00 00 00
 (008.688061)  can0  067   [8]  00 5D FD CC BB 00 00 00
 (008.688084)  can0  068   [8]  00 D9 DF 87 BB 00 00 00
 (008.708081)  can0  067   [8]  05 00 00 01 00 00 01 00
 (008.708105)  can0  068   [8]  05 00 00 01 00 00 01 00
 (008.748048)  can0  067   [8]  0B 00 00 00 00 00 00 00
 (008.748072)  can0  068   [8]  0B 00 00 00 00 00 00 00
 (008.808094)  can0  067   [8]  00 7E 8F CE BB 00 00 00
 (008.808118)  can0  068   [8]  00 C9 16 87 BB 00 00 00
 (008.828048)  can0  067   [8]  05 00 00 01 00 00 01 00
 (008.828068)  can0  068   [8]  05 00 00 01 00 00 01 00
 (008.868068)  can0  067   [8]  0B 00 00 00 00 00 00 00
 (008.868089)  can0  068   [8]  0B 00 00 00 00 00 00 00
 (008.928065)  can0  067   [8]  00 7E 8F CE BB 00 00 00
 (008.928088)  can0  068   [8]  00 B9 4D 86 BB 00 00 00
 (008.948046)  can0  067   [8]  05 00 00 01 00 00 01 00
 (008.948066)  can0  068   [8]  05 00 00 01 00 00 01 00
 (008.988044)  can0  067   [8]  0B 00 00 00 00 00 00 00
 (008.988066)  can0  068   [8]  0B 00 00 00 00 00 00 00
 (009.008070)  can0  067   [8]  12 80 66 01 01 01 00 00
 (009.008093)  can0  068   [8]  12 80 66 01 01 01 00 00
 (009.048043)  can0  067   [8]  00 5D FD CC BB 00 00 00
 (009.048065)  can0  068   [8]  00 C9 16 87 BB 00 00 00
 (009.068040)  can0  067   [8]  05 00 00 01 00 00 01 00
 (009.068058)  can0  068   [8]  05 00 00 01 00 00 01 00
 (009.108056)  can0  067   [8]  0B 00 00 00 00 00 00 00
 (009.108076)  can0  068   [8]  0B 00 00 00 00 00 00 00
 (009.168054)  can0  067   [8]  00 6D C6 CD BB 00 00 00
 (009.168072)  can0  068   [8]  00 C9 16 87 BB 00 00 00
 (009.188031)  can0  067   [8]  05 00 00 01 00 00 01 00
 (009.188051)  can0  068   [8]  05 00 00 01 00 00 01 00
 (009.228077)  can0  067   [8]  0B 00 00 00 00 00 00 00
 (009.228098)  can0  068   [8]  0B 00 00 00 00 00 00 00
 (009.288052)  can0  067   [8]  00 6D C6 CD BB 00 00 00
 (009.288075)  can0  068   [8]  00 B9 4D 86 BB 00 00 00
 (009.308045)  can0  067   [8]  05 00 00 01 00 00 01 00
 (009.308069)  can0  067   [8]  11 00 00 00 00 00 00 00
 (009.308071)  can0  068   [8]  05 00 00 01 00 00 01 00
 (009.308233)  can0  068   [8]  11 00 00 00 00 00 00 00
 (009.348074)  can0  067   [8]  0B 00 00 00 00 00 00 00
 (009.348094)  can0  068   [8]  0B 00 00 00 00 00 00 00
 (009.408021)  can0  067   [8]  00 5D FD CC BB 00 00 00
 (009.408043)  can0  068   [8]  00 C9 16 87 BB 00 00 00
 (009.428047)  can0  067   [8]  05 00 00 01 00 00 01 00
 (009.428069)  can0  068   [8]  05 00 00 01 00 00 01 00
 (009.468058)  can0  067   [8]  0B 00 00 00 00 00 00 00
 (009.468082)  can0  068   [8]  0B 00 00 00 00 00 00 00
 (009.528048)  can0  067   [8]  00 6D C6 CD BB 00 00 00
 (009.528071)  can0  068   [8]  00 C9 16 87 BB 00 00 00
 (009.548060)  can0  067   [8]  05 00 00 01 00 00 01 00
 (009.548084)  can0  068   [8]  05 00 00 01 00 00 01 00
 (009.588043)  can0  067   [8]  0B 00 00 00 00 00 00 00
 (009.588063)  can0  068   [8]  0B 00 00 00 00 00 00 00
 (009.648051)  can0  067   [8]  00 5D FD CC BB 00 00 00
 (009.648074)  can0  068   [8]  00 B9 4D 86 BB 00 00 00
 (009.668068)  can0  067   [8]  05 00 00 01 00 00 01 00
 (009.668092)  can0  068   [8]  05 00 00 01 00 00 01 00
 (009.708051)  can0  067   [8]  0B 00 00 00 00 00 00 00
 (009.708076)  can0  068   [8]  0B 00 00 00 00 00 00 00
 (009.768071)  can0  067   [8]  00 5D FD CC BB 00 00 00
 (009.768093)  can0  068   [8]  00 D9 DF 87 BB 00 00 00
 (009.788024)  can0  067   [8]  05 00 00 01 00 00 01 00
 (009.788046)  can0  068   [8]  05 00 00 01 00 00 01 00
 (009.828027)  can0  067   [8]  0B 00 00 00 00 00 00 00
 (009.828051)  can0  068   [8]  0B 00 00 00 00 00 00 00
 (009.888076)  can0  067   [8]  00 5D FD CC BB 00 00 00
 (009.888097)  can0  068   [8]  00 C9 16 87 BB 00 00 00
 (009.908032)  can0  067   [8]  05 00 00 01 00 00 01 00
 (009.908054)  can0  068   [8]  05 00 00 01 00 00 01 00
 (009.948055)  can0  067   [8]  0B 00 00 00 00 00 00 00
 (009.948076)  can0  068   [8]  0B 00 00 00 00 00 00 00
 (010.008087)  can0  067   [8]  00 5D FD CC BB 00 00 00
 (010.008109)  can0  067   [8]  12 80 66 01 01 01 00 00
 (010.008111)  can0  068   [8]  00 C9 16 87 BB 00 00 00
 (010.008220)  can0  068   [8]  12 80 66 01 01 01 00 00
 (010.019456)  can0  064   [8]  67 01 92 0A 86 BF 06 00
 (010.021806)  can0  064   [8]  68 01 92 0A 86 3F 06 00
 (010.027916)  can0  067   [8]  05 00 00 01 00 00 01 00
 (010.027942)  can0  067   [8]  11 00 00 00 00 00 11 01
 (010.028076)  can0  068   [8]  05 00 00 01 00 00 01 00
 (010.028186)  can0  068   [8]  11 00 00 00 00 00 11 01
 (010.047945)  can0  067   [8]  11 06 00 00 00 00 09 01
 (010.047981)  can0  067   [8]  12 80 67 01 01 01 00 00
 (010.048110)  can0  068   [8]  11 06 00 00 00 00 09 01
 (010.048173)  can0  068   [8]  12 80 67 01 01 01 00 00
 (010.068031)  can0  067   [8]  0B 6D C6 CD BB 00 00 00
 (010.068063)  can0  068   [8]  0B C9 16 87 BB 00 00 00
 (010.128028)  can0  067   [8]  00 84 89 2F BC 00 00 00
 (010.128054)  can0  068   [8]  00 70 79 73 BB 00 00 00
 (010.148031)  can0  067   [8]  05 5C 28 00 1B 28 00 00
 (010.148056)  can0  068   [8]  05 BB 2E 01 87 2E 01 00
 (010.188057)  can0  067   [8]  0B BD B3 D1 BB 00 00 00
 (010.188089)  can0  068   [8]  0B 79 29 83 BB 00 00 00
 (010.248065)  can0  067   [8]  00 74 C0 2E BC 00 00 00
 (010.248094)  can0  068   [8]  00 4F E7 71 BB 00 00 00
 (010.268078)  can0  067   [8]  05 90 29 00 5D 29 00 00
 (010.268106)  can0  068   [8]  05 04 30 01 14 30 01 00
 (010.308042)  can0  067   [8]  0B 9F 43 E9 BB 00 00 00
 (010.308069)  can0  068   [8]  0B 0E A1 55 BB 00 00 00
 (010.367992)  can0  067   [8]  00 63 F7 2D BC 00 00 00
 (010.368085)  can0  068   [8]  00 4F E7 71 BB 00 00 00
 (010.387993)  can0  067   [8]  05 90 2C 00 AF 2C 00 00
 (010.388171)  can0  068   [8]  05 F2 32 01 C9 32 01 00
 (010.427981)  can0  067   [8]  0B BA DE 12 BC 00 00 00
 (010.428098)  can0  068   [8]  0B CC 5A B9 BA 00 00 00
 (010.488047)  can0  067   [8]  00 84 89 2F BC 00 00 00
 (010.488068)  can0  068   [8]  00 30 55 70 BB 00 00 00
 (010.508034)  can0  067   [8]  05 71 31 00 7B 31 00 00
 (010.508054)  can0  068   [8]  05 42 38 01 45 38 01 00
 (010.548029)  can0  067   [8]  0B 3E 6B 4B BC 00 00 00
 (010.548052)  can0  068   [8]  0B C9 16 07 3B 00 00 00
 (010.608026)  can0  067   [8]  00 24 64 37 BC 00 00 00
 (010.608046)  can0  068   [8]  00 70 79 73 BB 00 00 00
 (010.628019)  can0  067   [8]  05 40 39 00 3D 39 00 00
 (010.628045)  can0  068   [8]  05 C6 40 01 AD 40 01 00
 (010.668054)  can0  067   [8]  0B 86 75 93 BC 00 00 00
 (010.668077)  can0  068   [8]  0B 30 E6 FC 3B 00 00 00
 (010.728048)  can0  067   [8]  00 FC B5 3B BC 00 00 00
 (010.728072)  can0  068   [8]  00 4F E7 71 BB 00 00 00
 (010.748050)  can0  067   [8]  05 38 45 00 C0 44 00 00
 (010.748073)  can0  068   [8]  05 2F 4D 01 67 4C 01 00
 (010.788052)  can0  067   [8]  0B A6 CE D6 BC 00 00 00
 (010.788075)  can0  068   [8]  0B 45 C0 83 3C 00 00 00
 (010.828397)  can0  068   [8]  0C 02 06 7A 1E 05 00 00
 (010.828421)  can0  068   [8]  0C 02 0B 02 26 0B 01 01
 (010.828422)  can0  068   [8]  11 0B 00 00 20 00 11 01
 (010.828424)  can0  068   [8]  0C 02 0D 22 80 80 26 00
 (010.848027)  can0  067   [8]  00 EE 0E 54 BC 00 00 00
 (010.848045)  can0  068   [8]  00 90 0B 75 BB 00 00 00
 (010.848187)  can0  068   [8]  12 80 66 01 02 01 00 01
 (010.848336)  can0  068   [8]  0C 02 A1 6F 00 01 F5 A0
 (010.868021)  can0  067   [8]  05 34 53 00 12 53 00 00
 (010.868038)  can0  068   [8]  0C 02 0E 07 00 03 00 00
 (010.868193)  can0  068   [8]  05 00 00 01 00 00 01 00
 (010.868347)  can0  068   [8]  11 00 00 00 00 00 11 01
 (010.907983)  can0  067   [8]  0B 90 A9 18 BD 00 00 00
 (010.908083)  can0  068   [8]  0B BF 44 DE 3C 00 00 00
 (010.967992)  can0  067   [8]  00 DE 45 53 BC 00 00 00
 (010.968007)  can0  068   [8]  00 B1 9D 76 BB 00 00 00
 (010.987967)  can0  067   [8]  05 3A 68 00 FF 68 00 00
 (010.988007)  can0  068   [8]  05 00 00 01 00 00 01 00
 (011.027901)  can0  067   [8]  0B 79 81 51 BD 00 00 00
 (011.028062)  can0  068   [8]  0B 15 91 28 3D 00 00 00
 (011.048033)  can0  067   [8]  11 06 00 00 00 00 09 01
 (011.048054)  can0  067   [8]  12 80 67 01 01 01 00 00
 (011.048056)  can0  067   [8]  0C 02 A1 A4 0A 00 F0 7E
 (011.088000)  can0  067   [8]  00 97 96 62 BC 00 00 00
 (011.088050)  can0  068   [8]  00 90 0B 75 BB 00 00 00
 (011.107997)  can0  067   [8]  05 76 77 00 65 77 00 00
 (011.108120)  can0  068   [8]  05 00 00 01 00 00 01 00
 (011.148037)  can0  067   [8]  0B 19 04 8B BD 00 00 00
 (011.148060)  can0  068   [8]  0B 99 AE 6D 3D 00 00 00
 (011.207883)  can0  067   [8]  00 8A 14 1D BD 00 00 00
 (011.208090)  can0  068   [8]  00 30 55 70 BB 00 00 00
 (011.228041)  can0  067   [8]  05 68 51 00 4F 52 00 00
 (011.228059)  can0  068   [8]  05 00 00 01 00 00 01 00
 (011.268016)  can0  067   [8]  0B BB 05 B3 BD 00 00 00
 (011.268036)  can0  068   [8]  0B 77 3D 9F 3D 00 00 00
 (011.288304)  can0  068   [8]  0C 02 00 00 00 00 00 00
 (011.288324)  can0  068   [8]  11 06 00 00 00 00 09 02
 (011.288325)  can0  068   [8]  12 80 67 01 02 01 00 01
 (011.308262)  can0  068   [8]  0C 02 A0 06 03 14 00 C0
 (011.328028)  can0  067   [8]  00 8D F8 F0 BD 00 00 00
 (011.328051)  can0  068   [8]  00 0E A1 D5 39 00 00 00
 (011.348002)  can0  067   [8]  05 3A 1A 00 AE 19 00 00
 (011.348022)  can0  068   [8]  05 81 26 01 BB 25 01 00
 (011.388035)  can0  067   [8]  0B 55 EB E0 BD 00 00 00
 (011.388056)  can0  068   [8]  0B AE 7B 5D BB 00 00 00
 (011.447966)  can0  067   [8]  00 BE 4E EC BD 00 00 00
 (011.448132)  can0  068   [8]  00 4C 12 B3 3A 00 00 00
 (011.468060)  can0  067   [8]  05 9F 43 00 E2 42 00 00
 (011.468084)  can0  068   [8]  05 B8 29 01 7E 29 01 00
 (011.508000)  can0  067   [8]  0B 05 67 0A BE 00 00 00
 (011.508022)  can0  068   [8]  0B CB 38 20 BB 00 00 00
 (011.568043)  can0  067   [8]  00 B4 A6 EC BD 00 00 00
 (011.568065)  can0  068   [8]  00 8B A5 A9 3A 00 00 00
 (011.588015)  can0  067   [8]  05 96 6D 00 56 6D 00 00
 (011.588037)  can0  068   [8]  05 71 2E 01 65 2E 01 00
 (011.628017)  can0  067   [8]  0B E5 35 26 BE 00 00 00
 (011.628039)  can0  068   [8]  0B 0E A1 D5 39 00 00 00
 (011.688004)  can0  067   [8]  00 04 FD 1D BE 00 00 00
 (011.688020)  can0  068   [8]  00 4A F0 99 3A 00 00 00
 (011.708000)  can0  067   [8]  05 FC 3A 00 42 3B 00 00
 (011.708018)  can0  068   [8]  05 78 37 01 6D 37 01 00
 (011.747999)  can0  067   [8]  0B 8F 14 44 BE 00 00 00
 (011.748019)  can0  068   [8]  0B 3E 6B CB 3B 00 00 00
 (011.788308)  can0  068   [8]  0C 02 06 DA 1E 00 00 00
 (011.788328)  can0  068   [8]  0C 02 0B 02 26 0B 01 02
 (011.788330)  can0  068   [8]  11 0B 00 00 20 00 11 02
 (011.788449)  can0  068   [8]  0C 02 0D 22 80 80 26 00
 (011.808018)  can0  067   [8]  00 D1 5A 60 BE 00 00 00
 (011.808039)  can0  068   [8]  00 10 C3 6E 3A 00 00 00
 (011.808225)  can0  068   [8]  12 80 66 01 02 01 00 02
 (011.808233)  can0  068   [8]  0C 02 0F 07 06 05 CD 01
 (011.827966)  can0  067   [8]  05 A9 24 00 D8 23 00 00
 (011.828080)  can0  068   [8]  05 00 00 01 00 00 01 00
 (011.828236)  can0  068   [8]  11 00 00 00 00 00 11 03
 (011.828244)  can0  068   [8]  0C 02 A1 6D 02 06 30 F0
 (011.848318)  can0  068   [8]  0C 02 00 00 00 00 00 00
 (011.848337)  can0  068   [8]  11 06 00 00 00 00 09 03
 (011.848338)  can0  068   [8]  12 80 67 01 02 01 00 02
 (011.868001)  can0  067   [8]  0B AC 33 63 BE 00 00 00
 (011.868020)  can0  068   [8]  0B 11 54 7B 3A 00 00 00
 (011.868195)  can0  068   [8]  0C 02 A0 05 03 00 00 20
 (011.888283)  can0  068   [8]  0C 02 A0 07 00 01 01 80
 (011.928005)  can0  067   [8]  00 7D 5F 5F BE 00 00 00
 (011.928026)  can0  068   [8]  00 90 0B 75 3A 00 00 00
 (011.948008)  can0  067   [8]  05 D9 55 00 69 55 00 00
 (011.948029)  can0  068   [8]  05 79 30 01 83 30 01 00
 (011.988038)  can0  067   [8]  0B C7 8A 81 BE 00 00 00
 (011.988059)  can0  068   [8]  0B 0C EE AF 3A 00 00 00
 (012.048012)  can0  067   [8]  00 27 E2 66 BE 00 00 00
 (012.048031)  can0  067   [8]  11 06 00 00 00 00 09 01
 (012.048033)  can0  067   [8]  12 80 67 00 01 01 00 00
 (012.048148)  can0  068   [8]  00 CA A7 93 3A 00 00 00
 (012.067974)  can0  067   [8]  05 E5 6F 00 4B 6D 00 00
 (012.068003)  can0  067   [8]  0C 02 A1 AD FF 00 50 7E
 (012.068013)  can0  068   [8]  05 4B 34 01 1F 34 01 00
 (012.108070)  can0  067   [8]  0B 23 9B 91 BE 00 00 00
 (012.108093)  can0  068   [8]  0B 2F C4 63 3B 00 00 00
 (012.168035)  can0  067   [8]  00 59 BE A1 BE 00 00 00
 (012.168059)  can0  068   [8]  00 8F 7A 68 3A 00 00 00
 (012.188037)  can0  067   [8]  05 07 10 00 A1 11 00 00
 (012.188060)  can0  068   [8]  05 09 3D 01 24 3D 01 00
 (012.228015)  can0  067   [8]  0B 5C A8 A1 BE 00 00 00
 (012.228040)  can0  068   [8]  0B 99 4C 11 3C 00 00 00
 (012.288061)  can0  067   [8]  00 AF E2 A6 BE 00 00 00
 (012.288085)  can0  068   [8]  00 11 54 7B 3A 00 00 00
 (012.307980)  can0  067   [8]  05 DD 3A 00 9D 3A 00 00
 (012.308004)  can0  068   [8]  05 56 4C 01 0A 4C 01 00
 (012.347979)  can0  067   [8]  0B B8 B8 B1 BE 00 00 00
 (012.348000)  can0  068   [8]  0B F2 E6 9B 3C 00 00 00
 (012.408013)  can0  067   [8]  00 FA 00 B2 BE 00 00 00
 (012.408035)  can0  068   [8]  00 89 F2 83 3A 00 00 00
 (012.427984)  can0  067   [8]  05 C0 45 00 B5 42 00 00
 (012.428004)  can0  068   [8]  05 2F 63 01 06 63 01 00
 (012.468017)  can0  067   [8]  0B 14 C9 C1 BE 00 00 00
 (012.468041)  can0  068   [8]  0B AE 23 0F 3D 00 00 00
 (012.528040)  can0  067   [8]  00 F0 CA C8 BE 00 00 00
 (012.528066)  can0  068   [8]  00 11 54 7B 3A 00 00 00
 (012.548004)  can0  067   [8]  05 5C 30 00 9E 30 00 00
 (012.548026)  can0  068   [8]  05 76 77 01 20 77 01 00
 (012.588010)  can0  067   [8]  0B 70 D9 D1 BE 00 00 00
 (012.588032)  can0  068   [8]  0B 29 2F 68 3D 00 00 00
 (012.608271)  can0  068   [8]  0C 02 06 7A 1E 05 00 00
 (012.608292)  can0  068   [8]  0C 02 0B 02 26 0B 01 03
 (012.608294)  can0  068   [8]  11 0B 00 00 20 00 11 03
 (012.608423)  can0  068   [8]  0C 02 0D 22 80 80 26 00
 (012.628238)  can0  068   [8]  12 80 66 01 02 01 00 03
 (012.628258)  can0  068   [8]  0C 02 A1 6F 00 01 65 A0
 (012.647989)  can0  067   [8]  00 2A 5F D7 BE 00 00 00
 (012.648009)  can0  068   [8]  0C 02 0E 07 00 03 00 00
 (012.648233)  can0  068   [8]  00 11 54 7B 3A 00 00 00
 (012.648241)  can0  068   [8]  11 00 00 00 00 00 11 03
 (012.668002)  can0  067   [8]  05 35 37 00 31 37 00 00
 (012.668021)  can0  068   [8]  05 00 00 01 00 00 01 00
 (012.708013)  can0  067   [8]  0B CD E9 E1 BE 00 00 00
 (012.708033)  can0  068   [8]  0B 87 97 AC 3D 00 00 00
 (012.768005)  can0  067   [8]  00 4E 95 E9 BE 00 00 00
 (012.768024)  can0  068   [8]  00 48 CE 80 3A 00 00 00
 (012.787941)  can0  067   [8]  05 63 2B 00 18 2B 00 00
 (012.788068)  can0  068   [8]  05 00 00 01 00 00 01 00
 (012.827990)  can0  067   [8]  0B B9 1C F2 BE 00 00 00
 (012.828009)  can0  068   [8]  0B 1E 05 F1 3D 00 00 00
 (012.887992)  can0  067   [8]  00 A1 9A F8 BE 00 00 00
 (012.888011)  can0  068   [8]  00 89 F2 83 3A 00 00 00
 (012.908011)  can0  067   [8]  05 6E 2B 00 80 2B 00 00
 (012.908031)  can0  068   [8]  05 00 00 01 00 00 01 00
 (012.947968)  can0  067   [8]  0B 43 05 01 BF 00 00 00
 (012.947984)  can0  068   [8]  0B F6 F9 1F 3E 00 00 00
 (013.007981)  can0  067   [8]  00 11 F4 02 BF 00 00 00
 (013.007999)  can0  068   [8]  00 90 0B 75 3A 00 00 00
 (013.027985)  can0  067   [8]  05 9B 34 00 9A 33 00 00
 (013.028004)  can0  068   [8]  05 00 00 01 00 00 01 00
 (013.047967)  can0  067   [8]  11 06 00 00 00 00 09 01
 (013.047986)  can0  067   [8]  12 80 67 00 01 01 00 00
 (013.047987)  can0  067   [8]  0C 02 A1 AD FF 00 00 7E
 (013.067992)  can0  067   [8]  0B 71 0D 09 BF 00 00 00
 (013.068010)  can0  068   [8]  0B FA 38 4B 3E 00 00 00
 (013.127993)  can0  067   [8]  00 6A 20 0C BF 00 00 00
 (013.128013)  can0  068   [8]  00 11 54 7B 3A 00 00 00
 (013.147998)  can0  067   [8]  05 37 33 00 89 33 00 00
 (013.148020)  can0  068   [8]  05 00 00 01 00 00 01 00
 (013.187949)  can0  067   [8]  0B 9F 15 11 BF 00 00 00
 (013.187998)  can0  068   [8]  0B 7A AD 78 3E 00 00 00
 (013.247942)  can0  067   [8]  00 85 E3 14 BF 00 00 00
 (013.248067)  can0  068   [8]  00 90 0B 75 3A 00 00 00
 (013.267938)  can0  067   [8]  05 F6 2D 00 19 2D 00 00
 (013.268054)  can0  068   [8]  05 00 00 01 00 00 01 00
 (013.307914)  can0  067   [8]  0B CD 1D 19 BF 00 00 00
 (013.307952)  can0  068   [8]  0B 19 6C 93 3E 00 00 00
 (013.367927)  can0  067   [8]  00 34 92 1D BF 00 00 00
 (013.368052)  can0  068   [8]  00 10 C3 6E 3A 00 00 00
 (013.387982)  can0  067   [8]  05 E4 26 00 0E 26 00 00
 (013.388001)  can0  068   [8]  05 00 00 01 00 00 01 00
 (013.427938)  can0  067   [8]  0B FB 25 21 BF 00 00 00
 (013.427977)  can0  068   [8]  0B BE 87 AA 3E 00 00 00
 (013.487988)  can0  067   [8]  00 2B EF 24 BF 00 00 00
 (013.488007)  can0  068   [8]  00 90 0B 75 3A 00 00 00
 (013.508001)  can0  067   [8]  05 52 25 00 BC 24 00 00
 (013.508022)  can0  068   [8]  05 00 00 01 00 00 01 00
 (013.547966)  can0  067   [8]  0B 29 2E 29 BF 00 00 00
 (013.547986)  can0  068   [8]  0B 3D A0 C1 3E 00 00 00
 (013.607910)  can0  067   [8]  00 71 10 2C BF 00 00 00
 (013.608037)  can0  068   [8]  00 90 0B 75 3A 00 00 00
 (013.608175)  can0  068   [8]  0C 02 A0 07 00 32 00 80
 (013.627941)  can0  067   [8]  05 A1 29 00 98 29 00 00
 (013.627983)  can0  068   [8]  05 00 00 01 00 00 01 00
 (013.628192)  can0  068   [8]  12 80 66 01 02 01 00 03
 (013.648252)  can0  068   [8]  11 00 00 00 00 00 11 03
 (013.667936)  can0  067   [8]  0B 58 36 31 BF 00 00 00
 (013.668049)  can0  068   [8]  0B BD B8 D8 3E 00 00 00
 (013.728010)  can0  067   [8]  00 93 86 34 BF 00 00 00
 (013.728030)  can0  068   [8]  00 8F 7A 68 3A 00 00 00
 (013.747922)  can0  067   [8]  05 5C 2D 00 B2 2C 00 00
 (013.748053)  can0  068   [8]  05 00 00 01 00 00 01 00
 (013.787961)  can0  067   [8]  0B 86 3E 39 BF 00 00 00
 (013.787982)  can0  068   [8]  0B 62 D4 EF 3E 00 00 00
 (013.847972)  can0  067   [8]  00 18 74 3D BF 00 00 00
 (013.847993)  can0  068   [8]  00 10 C3 6E 3A 00 00 00
 (013.867925)  can0  067   [8]  05 1C 28 00 7B 28 00 00
 (013.868038)  can0  068   [8]  05 00 00 01 00 00 01 00
 (013.907877)  can0  067   [8]  0B B4 46 41 BF 00 00 00
 (013.908056)  can0  068   [8]  0B 71 76 03 3F 00 00 00
 (013.967940)  can0  067   [8]  00 7E 27 46 BF 00 00 00
 (013.968017)  can0  068   [8]  00 8F 7A 68 3A 00 00 00
 (013.987949)  can0  067   [8]  05 67 21 00 D0 20 00 00
 (013.987996)  can0  068   [8]  05 00 00 01 00 00 01 00
 (014.027951)  can0  067   [8]  0B E2 4E 49 BF 00 00 00
 (014.028026)  can0  068   [8]  0B B1 02 0F 3F 00 00 00
 (014.047962)  can0  067   [8]  11 06 00 00 00 00 09 01
 (014.047981)  can0  067   [8]  12 80 67 00 01 01 00 00
 (014.047982)  can0  067   [8]  0C 02 A1 B6 FF 00 00 7E
 (014.087969)  can0  067   [8]  00 F8 14 4E BF 00 00 00
 (014.087989)  can0  068   [8]  00 90 0B 75 3A 00 00 00
 (014.107958)  can0  067   [8]  05 1C 1D 00 A6 1C 00 00
 (014.107975)  can0  068   [8]  05 00 00 01 00 00 01 00
 (014.147951)  can0  067   [8]  0B A1 63 51 BF 00 00 00
 (014.147970)  can0  068   [8]  0B 83 90 1A 3F 00 00 00
 (014.207987)  can0  067   [8]  00 70 AA 54 BF 00 00 00
 (014.208003)  can0  068   [8]  00 8F 7A 68 3A 00 00 00
 (014.227974)  can0  067   [8]  05 53 21 00 51 21 00 00
 (014.227992)  can0  068   [8]  05 00 00 01 00 00 01 00
 (014.267969)  can0  067   [8]  0B 43 33 59 BF 00 00 00
 (014.267989)  can0  068   [8]  0B C3 1C 26 3F 00 00 00
 (014.327979)  can0  067   [8]  00 C4 AA 5C BF 00 00 00
 (014.328002)  can0  068   [8]  00 8F 7A 68 3A 00 00 00
 (014.347973)  can0  067   [8]  05 76 25 00 82 24 00 00
 (014.347994)  can0  068   [8]  05 00 00 01 00 00 01 00
 (014.387957)  can0  067   [8]  0B C5 D3 60 BF 00 00 00
 (014.387976)  can0  068   [8]  0B 03 A9 31 3F 00 00 00
 (014.447962)  can0  067   [8]  00 BF 3E 65 BF 00 00 00
 (014.447982)  can0  068   [8]  00 0E A1 55 3A 00 00 00
 (014.467939)  can0  067   [8]  05 24 1E 00 80 1D 00 00
 (014.467957)  can0  068   [8]  05 00 00 01 00 00 01 00
 (014.507920)  can0  067   [8]  0B 2D 0E 68 BF 00 00 00
 (014.507997)  can0  068   [8]  0B D5 36 3D 3F 00 00 00
 (014.567916)  can0  067   [8]  00 FD AC 6C BF 00 00 00
 (014.568020)  can0  068   [8]  00 0F 32 62 3A 00 00 00
 (014.587911)  can0  067   [8]  05 4E 15 00 BC 14 00 00
 (014.588033)  can0  068   [8]  05 00 00 01 00 00 01 00
 (014.608201)  can0  068   [8]  0C 02 A0 07 00 32 00 80
 (014.627975)  can0  067   [8]  0B 10 C3 6E BF 00 00 00
 (014.627993)  can0  068   [8]  0B 15 C3 48 3F 00 00 00
 (014.628214)  can0  068   [8]  12 80 66 01 02 01 00 03
 (014.648229)  can0  068   [8]  11 00 00 00 00 00 11 03
 (014.687910)  can0  067   [8]  00 A7 5E 71 BF 00 00 00
 (014.688017)  can0  068   [8]  00 0F 32 62 3A 00 00 00
 (014.707886)  can0  067   [8]  05 82 1E 00 26 1E 00 00
 (014.708014)  can0  068   [8]  05 00 00 01 00 00 01 00
 (014.747949)  can0  067   [8]  0B 71 D1 74 BF 00 00 00
 (014.747969)  can0  068   [8]  0B 32 41 54 3F 00 00 00
 (014.807984)  can0  067   [8]  00 78 C3 78 BF 00 00 00
 (014.807999)  can0  068   [8]  00 0E A1 55 3A 00 00 00
 (014.827984)  can0  067   [8]  05 FD 17 00 4A 17 00 00
 (014.828001)  can0  068   [8]  05 00 00 01 00 00 01 00
 (014.867908)  can0  067   [8]  0B 79 26 7A BF 00 00 00
 (014.868033)  can0  068   [8]  0B 7D 5F 5F 3F 00 00 00
 (014.927977)  can0  067   [8]  00 EC B3 7C BF 00 00 00
 (014.927997)  can0  068   [8]  00 8F E9 5B 3A 00 00 00
 (014.947982)  can0  067   [8]  05 92 15 00 34 16 00 00
 (014.948001)  can0  068   [8]  05 00 00 01 00 00 01 00
 (014.987923)  can0  067   [8]  0B 25 C2 7E BF 00 00 00
 (014.988000)  can0  068   [8]  0B 6E B9 69 3F 00 00 00
 (015.047968)  can0  067   [8]  00 F8 14 81 BF 00 00 00
 (015.047988)  can0  067   [8]  11 06 00 00 00 00 09 01
 (015.047989)  can0  067   [8]  12 80 67 00 01 01 00 00
 (015.048062)  can0  068   [8]  00 8E 58 4F 3A 00 00 00
 (015.067971)  can0  067   [8]  05 D1 14 00 58 14 00 00
 (015.067991)  can0  067   [8]  0C 02 A1 92 FF 00 00 7E
 (015.067992)  can0  068   [8]  05 00 00 01 00 00 01 00
 (015.107927)  can0  067   [8]  0B 72 51 81 BF 00 00 00
 (015.107976)  can0  068   [8]  0B 35 EF 72 3F 00 00 00
 (015.167950)  can0  067   [8]  00 8D 63 82 BF 00 00 00
 (015.167971)  can0  068   [8]  00 8F E9 5B 3A 00 00 00
 (015.187951)  can0  067   [8]  05 CE 16 00 AE 16 00 00
 (015.187969)  can0  068   [8]  05 00 00 01 00 00 01 00
 (015.227888)  can0  067   [8]  0B 24 E5 82 BF 00 00 00
 (015.228017)  can0  068   [8]  0B B4 B0 7A 3F 00 00 00
 (015.287917)  can0  067   [8]  00 A9 CD 84 BF 00 00 00
 (015.287984)  can0  068   [8]  00 8E 58 4F 3A 00 00 00
 (015.307925)  can0  067   [8]  05 78 0B 00 83 0B 00 00
 (015.307967)  can0  068   [8]  05 00 00 01 00 00 01 00
 (015.347920)  can0  067   [8]  0B 29 1C 84 BF 00 00 00
 (015.348027)  can0  068   [8]  0B 08 7B 80 3F 00 00 00
 (015.407953)  can0  067   [8]  00 57 1F 85 BF 00 00 00
 (015.407970)  can0  068   [8]  00 0E A1 55 3A 00 00 00
 (015.427946)  can0  067   [8]  05 F2 11 00 CC 11 00 00
 (015.427964)  can0  068   [8]  05 00 00 01 00 00 01 00
 (015.467965)  can0  067   [8]  0B A4 F9 84 BF 00 00 00
 (015.467984)  can0  068   [8]  0B 4A DD 82 3F 00 00 00
 (015.527964)  can0  067   [8]  00 DE 50 86 BF 00 00 00
 (015.527982)  can0  068   [8]  00 8F E9 5B 3A 00 00 00
 (015.547865)  can0  067   [8]  05 A3 0D 00 F8 0D 00 00
 (015.547997)  can0  068   [8]  05 00 00 01 00 00 01 00
 (015.587875)  can0  067   [8]  0B 3B 86 85 BF 00 00 00
 (015.587997)  can0  068   [8]  0B B1 80 84 3F 00 00 00
 (015.608118)  can0  068   [8]  0C 02 A0 07 00 32 00 80
 (015.628209)  can0  068   [8]  12 80 66 01 02 01 00 03
 (015.647900)  can0  067   [8]  00 9B BF 86 BF 00 00 00
 (015.647945)  can0  068   [8]  00 0E A1 55 3A 00 00 00
 (015.648173)  can0  068   [8]  11 00 00 00 00 00 11 03
 (015.667903)  can0  067   [8]  05 EB 0D 00 0D 0C 00 00
 (015.667937)  can0  068   [8]  05 00 00 01 00 00 01 00
 (015.707945)  can0  067   [8]  0B E9 D7 85 BF 00 00 00
 (015.707967)  can0  068   [8]  0B F3 74 85 3F 00 00 00
 (015.767895)  can0  067   [8]  00 EC 24 87 BF 00 00 00
 (015.768017)  can0  068   [8]  00 8E 58 4F 3A 00 00 00
 (015.787885)  can0  067   [8]  05 1B 0C 00 65 0C 00 00
 (015.787992)  can0  068   [8]  05 00 00 01 00 00 01 00
 (015.827903)  can0  067   [8]  0B 65 FE 85 BF 00 00 00
 (015.828007)  can0  068   [8]  0B 0C E6 85 3F 00 00 00
 (015.887911)  can0  067   [8]  00 7C 3C 87 BF 00 00 00
 (015.887950)  can0  068   [8]  00 0E A1 55 3A 00 00 00
 (015.907882)  can0  067   [8]  05 1A 0D 00 3D 0D 00 00
 (015.907989)  can0  068   [8]  05 00 00 01 00 00 01 00
 (015.947963)  can0  067   [8]  0B 65 09 86 BF 00 00 00
 (015.947982)  can0  068   [8]  0B D3 07 86 3F 00 00 00
 (016.007898)  can0  067   [8]  00 45 3D 87 BF 00 00 00
 (016.008029)  can0  068   [8]  00 8E 58 4F 3A 00 00 00
 (016.027910)  can0  067   [8]  05 EE 0B 00 4F 0C 00 00
 (016.027947)  can0  067   [8]  11 06 00 00 00 00 29 01
 (016.027957)  can0  068   [8]  05 00 00 01 00 00 01 00
 (016.028184)  can0  068   [8]  11 00 00 00 00 00 31 03
 (016.047960)  can0  067   [8]  12 80 67 00 01 01 00 00
 (016.047979)  can0  067   [8]  0C 02 A1 92 4E 00 10 7E
 (016.067892)  can0  067   [8]  0B 2E 0A 86 BF 00 00 00
 (016.067997)  can0  068   [8]  0B 2E 0A 86 3F 00 00 00
 (016.127909)  can0  067   [8]  00 D7 3E 87 BF 00 00 00
 (016.127946)  can0  068   [8]  00 0E A1 55 3A 00 00 00
 (016.147916)  can0  067   [8]  05 00 02 00 D8 01 00 00
 (016.147970)  can0  068   [8]  05 00 00 01 00 00 01 00
 (016.187899)  can0  067   [8]  0B 2E 0A 86 BF 00 00 00
 (016.187940)  can0  068   [8]  0B 2E 0A 86 3F 00 00 00
 (016.247905)  can0  067   [8]  00 D7 3E 87 BF 00 00 00
 (016.248009)  can0  068   [8]  00 8E 58 4F 3A 00 00 00
 (016.267956)  can0  067   [8]  05 F6 01 00 06 02 00 00
 (016.267974)  can0  068   [8]  05 00 00 01 00 00 01 00
 (016.307938)  can0  067   [8]  0B 2E 0A 86 BF 00 00 00
 (016.307958)  can0  068   [8]  0B 2E 0A 86 3F 00 00 00
 (016.367841)  can0  067   [8]  00 D7 3E 87 BF 00 00 00
 (016.368022)  can0  068   [8]  00 8E 58 4F 3A 00 00 00
 (016.387914)  can0  067   [8]  05 F5 01 00 62 02 00 00
 (016.387965)  can0  068   [8]  05 00 00 01 00 00 01 00
 (016.427894)  can0  067   [8]  0B 2E 0A 86 BF 00 00 00
 (016.427979)  can0  068   [8]  0B 2E 0A 86 3F 00 00 00
 (016.487814)  can0  067   [8]  00 D7 3E 87 BF 00 00 00
 (016.487970)  can0  068   [8]  00 0E A1 55 3A 00 00 00
 (016.507897)  can0  067   [8]  05 F5 01 00 22 02 00 00
 (016.508031)  can0  068   [8]  05 00 00 01 00 00 01 00
 (016.547940)  can0  067   [8]  0B 2E 0A 86 BF 00 00 00
 (016.547962)  can0  068   [8]  0B 2E 0A 86 3F 00 00 00
 (016.607950)  can0  067   [8]  00 D7 3E 87 BF 00 00 00
 (016.607969)  can0  068   [8]  00 8E 58 4F 3A 00 00 00
 (016.608103)  can0  068   [8]  0C 02 A0 07 00 32 00 80
 (016.627877)  can0  067   [8]  05 FE 01 00 18 02 00 00
 (016.628025)  can0  068   [8]  05 00 00 01 00 00 01 00
 (016.628031)  can0  068   [8]  12 80 66 01 02 01 00 03
 (016.667931)  can0  067   [8]  0B 2E 0A 86 BF 00 00 00
 (016.667951)  can0  068   [8]  0B 2E 0A 86 3F 00 00 00
 (016.727943)  can0  067   [8]  00 0E 3E 87 BF 00 00 00
 (016.727962)  can0  068   [8]  00 8E 58 4F 3A 00 00 00
 (016.747912)  can0  067   [8]  05 FE 01 00 22 02 00 00
 (016.747931)  can0  068   [8]  05 00 00 01 00 00 01 00
 (016.787924)  can0  067   [8]  0B 2E 0A 86 BF 00 00 00
 (016.787942)  can0  068   [8]  0B 2E 0A 86 3F 00 00 00
 (016.847849)  can0  067   [8]  00 32 41 87 BF 00 00 00
 (016.847978)  can0  068   [8]  00 8E 58 4F 3A 00 00 00
 (016.867883)  can0  067   [8]  05 EA 01 00 18 02 00 00
 (016.867931)  can0  068   [8]  05 00 00 01 00 00 01 00
 (016.907929)  can0  067   [8]  0B 2E 0A 86 BF 00 00 00
 (016.907948)  can0  068   [8]  0B 2E 0A 86 3F 00 00 00
 (016.967845)  can0  067   [8]  00 D7 3E 87 BF 00 00 00
 (016.967979)  can0  068   [8]  00 0E A1 55 3A 00 00 00
 (016.987865)  can0  067   [8]  05 07 02 00 D8 01 00 00
 (016.987983)  can0  068   [8]  05 00 00 01 00 00 01 00
 (017.027873)  can0  067   [8]  0B 2E 0A 86 BF 00 00 00
 (017.027893)  can0  067   [8]  11 06 00 00 00 00 29 01
 (017.027979)  can0  068   [8]  0B 2E 0A 86 3F 00 00 00
 (017.028111)  can0  068   [8]  11 00 00 00 00 00 31 03
 (017.047759)  can0  067   [8]  12 80 67 00 01 01 00 00
 (017.047774)  can0  067   [8]  0C 02 A1 92 00 00 70 04
 (017.087928)  can0  067   [8]  00 69 40 87 BF 00 00 00
 (017.087947)  can0  068   [8]  00 8E 58 4F 3A 00 00 00
 (017.107879)  can0  067   [8]  05 FD 01 00 6C 02 00 00
 (017.108001)  can0  068   [8]  05 00 00 01 00 00 01 00
 (017.147836)  can0  067   [8]  0B 2E 0A 86 BF 00 00 00
 (017.147983)  can0  068   [8]  0B 2E 0A 86 3F 00 00 00
 (017.207940)  can0  067   [8]  00 69 40 87 BF 00 00 00
 (017.207959)  can0  068   [8]  00 0E A1 55 3A 00 00 00
 (017.227882)  can0  067   [8]  05 F2 01 00 D8 01 00 00
 (017.227918)  can0  068   [8]  05 00 00 01 00 00 01 00
 (017.267852)  can0  067   [8]  0B 2E 0A 86 BF 00 00 00
 (017.267980)  can0  068   [8]  0B 2E 0A 86 3F 00 00 00
 (017.327881)  can0  067   [8]  00 A0 3F 87 BF 00 00 00
 (017.327986)  can0  068   [8]  00 0E A1 55 3A 00 00 00
 (017.347885)  can0  067   [8]  05 F2 01 00 E1 01 00 00
 (017.347994)  can0  068   [8]  05 00 00 01 00 00 01 00
 (017.387884)  can0  067   [8]  0B 2E 0A 86 BF 00 00 00
 (017.387917)  can0  068   [8]  0B 2E 0A 86 3F 00 00 00
 (017.447890)  can0  067   [8]  00 D7 3E 87 BF 00 00 00
 (017.447932)  can0  068   [8]  00 0E A1 55 3A 00 00 00
 (017.467876)  can0  067   [8]  05 F1 01 00 06 02 00 00
 (017.467996)  can0  068   [8]  05 00 00 01 00 00 01 00
 (017.507886)  can0  067   [8]  0B 2E 0A 86 BF 00 00 00
 (017.508007)  can0  068   [8]  0B 2E 0A 86 3F 00 00 00
 (017.567925)  can0  067   [8]  00 A0 3F 87 BF 00 00 00
 (017.567943)  can0  068   [8]  00 8E 58 4F 3A 00 00 00
 (017.587870)  can0  067   [8]  05 F1 01 00 0F 02 00 00
 (017.587991)  can0  068   [8]  05 00 00 01 00 00 01 00
 (017.608201)  can0  068   [8]  0C 02 A0 07 00 32 00 80
 (017.627939)  can0  067   [8]  0B 2E 0A 86 BF 00 00 00
 (017.627959)  can0  068   [8]  0B 2E 0A 86 3F 00 00 00
 (017.628081)  can0  068   [8]  12 80 66 01 02 01 00 03
 (017.687919)  can0  067   [8]  00 69 40 87 BF 00 00 00
 (017.687939)  can0  068   [8]  00 0E A1 55 3A 00 00 00
 (017.707882)  can0  067   [8]  05 E6 01 00 06 02 00 00
 (017.707991)  can0  068   [8]  05 00 00 01 00 00 01 00
 (017.747891)  can0  067   [8]  0B 2E 0A 86 BF 00 00 00
 (017.747934)  can0  068   [8]  0B 2E 0A 86 3F 00 00 00
 (017.807864)  can0  067   [8]  00 D7 3E 87 BF 00 00 00
 (017.807992)  can0  068   [8]  00 0E A1 55 3A 00 00 00
 (017.827819)  can0  067   [8]  05 FA 01 00 E1 01 00 00
 (017.827949)  can0  068   [8]  05 00 00 01 00 00 01 00
 (017.867898)  can0  067   [8]  0B 2E 0A 86 BF 00 00 00
 (017.867954)  can0  068   [8]  0B 2E 0A 86 3F 00 00 00
 (017.927829)  can0  067   [8]  00 D7 3E 87 BF 00 00 00
 (017.927956)  can0  068   [8]  00 0E A1 55 3A 00 00 00
 (017.947873)  can0  067   [8]  05 FA 01 00 22 02 00 00
 (017.947987)  can0  068   [8]  05 00 00 01 00 00 01 00
 (017.987873)  can0  067   [8]  0B 2E 0A 86 BF 00 00 00
 (017.987995)  can0  068   [8]  0B 2E 0A 86 3F 00 00 00
 (018.027958)  can0  067   [8]  11 06 00 00 00 00 29 01
 (018.027982)  can0  068   [8]  11 00 00 00 00 00 31 03
 (018.047896)  can0  067   [8]  00 A0 3F 87 BF 00 00 00
 (018.047917)  can0  067   [8]  12 80 67 00 01 01 00 00
 (018.047918)  can0  067   [8]  0C 02 A1 92 00 00 70 04
 (018.048045)  can0  068   [8]  00 0E A1 55 3A 00 00 00
 (018.067874)  can0  067   [8]  05 DC 01 00 0F 02 00 00
 (018.068005)  can0  068   [8]  05 00 00 01 00 00 01 00
 (018.107908)  can0  067   [8]  0B 2E 0A 86 BF 00 00 00
 (018.107928)  can0  068   [8]  0B 2E 0A 86 3F 00 00 00
 (018.167890)  can0  067   [8]  00 A0 3F 87 BF 00 00 00
 (018.167906)  can0  068   [8]  00 8E 58 4F 3A 00 00 00
 (018.187891)  can0  067   [8]  05 E5 01 00 18 02 00 00
 (018.187909)  can0  068   [8]  05 00 00 01 00 00 01 00
 (018.227913)  can0  067   [8]  0B 2E 0A 86 BF 00 00 00
 (018.227932)  can0  068   [8]  0B 2E 0A 86 3F 00 00 00
 (018.287921)  can0  067   [8]  00 A0 3F 87 BF 00 00 00
 (018.287940)  can0  068   [8]  00 8F E9 5B 3A 00 00 00
 (018.307888)  can0  067   [8]  05 EF 01 00 EA 01 00 00
 (018.307906)  can0  068   [8]  05 00 00 01 00 00 01 00
 (018.347895)  can0  067   [8]  0B 2E 0A 86 BF 00 00 00
 (018.347914)  can0  068   [8]  0B 2E 0A 86 3F 00 00 00
 (018.407894)  can0  067   [8]  00 A0 3F 87 BF 00 00 00
 (018.407912)  can0  068   [8]  00 8E 58 4F 3A 00 00 00
 (018.427930)  can0  067   [8]  05 E4 01 00 F3 01 00 00
 (018.427950)  can0  068   [8]  05 00 00 01 00 00 01 00
 (018.467925)  can0  067   [8]  0B 2E 0A 86 BF 00 00 00
 (018.467944)  can0  068   [8]  0B 2E 0A 86 3F 00 00 00
 (018.527825)  can0  067   [8]  00 0E 3E 87 BF 00 00 00
 (018.527934)  can0  068   [8]  00 8F E9 5B 3A 00 00 00
 (018.547835)  can0  067   [8]  05 EE 01 00 22 02 00 00
 (018.547949)  can0  068   [8]  05 00 00 01 00 00 01 00
 (018.587923)  can0  067   [8]  0B 2E 0A 86 BF 00 00 00
 (018.587943)  can0  068   [8]  0B 2E 0A 86 3F 00 00 00
 (018.608157)  can0  068   [8]  0C 02 A0 07 00 32 00 80
 (018.628146)  can0  068   [8]  12 80 66 01 02 01 00 03
 (018.647941)  can0  067   [8]  00 D7 3E 87 BF 00 00 00
 (018.647961)  can0  068   [8]  00 0E A1 55 3A 00 00 00
 (018.667886)  can0  067   [8]  05 E3 01 00 97 01 00 00
 (018.667906)  can0  068   [8]  05 00 00 01 00 00 01 00
 (018.707850)  can0  067   [8]  0B 2E 0A 86 BF 00 00 00
 (018.707885)  can0  068   [8]  0B 2E 0A 86 3F 00 00 00
 (018.767937)  can0  067   [8]  00 D7 3E 87 BF 00 00 00
 (018.767960)  can0  068   [8]  00 0E A1 55 3A 00 00 00
 (018.787900)  can0  067   [8]  05 ED 01 00 E1 01 00 00
 (018.787920)  can0  068   [8]  05 00 00 01 00 00 01 00
 (018.827799)  can0  067   [8]  0B 2E 0A 86 BF 00 00 00
 (018.827954)  can0  068   [8]  0B 2E 0A 86 3F 00 00 00
 (018.887906)  can0  067   [8]  00 A0 3F 87 BF 00 00 00
 (018.887929)  can0  068   [8]  00 8E 58 4F 3A 00 00 00
 (018.907848)  can0  067   [8]  05 D8 01 00 C5 01 00 00
 (018.907974)  can0  068   [8]  05 00 00 01 00 00 01 00
 (018.947838)  can0  067   [8]  0B 2E 0A 86 BF 00 00 00
 (018.947950)  can0  068   [8]  0B 2E 0A 86 3F 00 00 00
 (019.007847)  can0  067   [8]  00 A0 3F 87 BF 00 00 00
 (019.007951)  can0  068   [8]  00 0E A1 55 3A 00 00 00
 (019.027783)  can0  067   [8]  05 F6 01 00 E1 01 00 00
 (019.027807)  can0  067   [8]  11 06 00 00 00 00 29 01
 (019.028034)  can0  068   [8]  05 00 00 01 00 00 01 00
 (019.028047)  can0  068   [8]  11 00 00 00 00 00 31 03
 (019.047865)  can0  067   [8]  12 80 67 00 01 01 00 00
 (019.047887)  can0  067   [8]  0C 02 A1 92 00 00 60 04
 (019.067895)  can0  067   [8]  0B 2E 0A 86 BF 00 00 00
 (019.067915)  can0  068   [8]  0B 2E 0A 86 3F 00 00 00
 (019.127885)  can0  067   [8]  00 D7 3E 87 BF 00 00 00
 (019.127908)  can0  068   [8]  00 0E A1 55 3A 00 00 00
 (019.147840)  can0  067   [8]  05 CD 01 00 FD 01 00 00
 (019.147918)  can0  068   [8]  05 00 00 01 00 00 01 00
 (019.187849)  can0  067   [8]  0B 2E 0A 86 BF 00 00 00
 (019.187887)  can0  068   [8]  0B 2E 0A 86 3F 00 00 00
 (019.247866)  can0  067   [8]  00 69 40 87 BF 00 00 00
 (019.247888)  can0  068   [8]  00 8E 58 4F 3A 00 00 00
 (019.267897)  can0  067   [8]  05 E1 01 00 D8 01 00 00
 (019.267919)  can0  068   [8]  05 00 00 01 00 00 01 00
 (019.307857)  can0  067   [8]  0B 2E 0A 86 BF 00 00 00
 (019.307892)  can0  068   [8]  0B 2E 0A 86 3F 00 00 00
 (019.367905)  can0  067   [8]  00 A0 3F 87 BF 00 00 00
 (019.367926)  can0  068   [8]  00 0E A1 55 3A 00 00 00
 (019.387865)  can0  067   [8]  05 E1 01 00 BC 01 00 00
 (019.387943)  can0  068   [8]  05 00 00 01 00 00 01 00
 (019.427862)  can0  067   [8]  0B 2E 0A 86 BF 00 00 00
 (019.427936)  can0  068   [8]  0B 2E 0A 86 3F 00 00 00
 (019.487913)  can0  067   [8]  00 D7 3E 87 BF 00 00 00
 (019.487936)  can0  068   [8]  00 0E A1 55 3A 00 00 00
 (019.507817)  can0  067   [8]  05 D6 01 00 2B 02 00 00
 (019.507947)  can0  068   [8]  05 00 00 01 00 00 01 00
 (019.547873)  can0  067   [8]  0B 2E 0A 86 BF 00 00 00
 (019.547896)  can0  068   [8]  0B 2E 0A 86 3F 00 00 00
 (019.607874)  can0  067   [8]  00 D7 3E 87 BF 00 00 00
 (019.607893)  can0  068   [8]  00 0E A1 55 3A 00 00 00
 (019.608102)  can0  068   [8]  0C 02 A0 07 00 32 00 80
 (019.627826)  can0  067   [8]  05 EA 01 00 0F 02 00 00
 (019.627959)  can0  068   [8]  05 00 00 01 00 00 01 00
 (019.628042)  can0  068   [8]  12 80 66 01 02 01 00 03
 (019.667879)  can0  067   [8]  0B 2E 0A 86 BF 00 00 00
 (019.667901)  can0  068   [8]  0B 2E 0A 86 3F 00 00 00
 (019.727827)  can0  067   [8]  00 D7 3E 87 BF 00 00 00
 (019.727938)  can0  068   [8]  00 8E 58 4F 3A 00 00 00
 (019.747839)  can0  067   [8]  05 DF 01 00 BC 01 00 00
 (019.747911)  can0  068   [8]  05 00 00 01 00 00 01 00
 (019.787819)  can0  067   [8]  0B 2E 0A 86 BF 00 00 00
 (019.787926)  can0  068   [8]  0B 2E 0A 86 3F 00 00 00
 (019.847837)  can0  067   [8]  00 69 40 87 BF 00 00 00
 (019.847877)  can0  068   [8]  00 0E A1 55 3A 00 00 00
 (019.867824)  can0  067   [8]  05 F3 01 00 FD 01 00 00
 (019.867933)  can0  068   [8]  05 00 00 01 00 00 01 00
 (019.907826)  can0  067   [8]  0B 2E 0A 86 BF 00 00 00
 (019.907919)  can0  068   [8]  0B 2E 0A 86 3F 00 00 00
 (019.967883)  can0  067   [8]  00 0E 3E 87 BF 00 00 00
 (019.967901)  can0  068   [8]  00 0E A1 55 3A 00 00 00
 (019.987867)  can0  067   [8]  05 E8 01 00 FD 01 00 00
 (019.987885)  can0  068   [8]  05 00 00 01 00 00 01 00
 (020.027835)  can0  067   [8]  0B 2E 0A 86 BF 00 00 00
 (020.027853)  can0  067   [8]  11 06 00 00 00 00 29 01
 (020.027946)  can0  068   [8]  0B 2E 0A 86 3F 00 00 00
 (020.028069)  can0  068   [8]  11 00 00 00 00 00 31 03
 (020.032492)  can0  064   [8]  67 01 35 FA 8E BC 07 00
 (020.034471)  can0  064   [8]  68 01 35 FA 8E 3C 07 00
 (020.047759)  can0  067   [8]  11 06 00 00 00 00 09 01
 (020.047785)  can0  067   [8]  12 80 67 00 01 01 00 00
 (020.047836)  can0  067   [8]  0C 02 A1 92 00 00 70 04
 (020.048025)  can0  068   [8]  11 00 00 00 00 00 11 03
 (020.087901)  can0  067   [8]  00 A0 3F 87 BF 00 00 00
 (020.087933)  can0  068   [8]  00 8E 58 4F 3A 00 00 00
 (020.107842)  can0  067   [8]  05 4F 05 00 73 05 00 00
 (020.107928)  can0  068   [8]  05 00 00 01 00 00 01 00
 (020.147818)  can0  067   [8]  0B 0E 3E 87 BF 00 00 00
 (020.147907)  can0  068   [8]  0B 0E A1 55 3A 00 00 00
 (020.207898)  can0  067   [8]  00 69 40 87 BF 00 00 00
 (020.207936)  can0  068   [8]  00 8E 58 4F 3A 00 00 00
 (020.227906)  can0  067   [8]  05 9A 04 00 C4 04 00 00
 (020.227942)  can0  068   [8]  05 00 00 01 00 00 01 00
 (020.267826)  can0  067   [8]  0B 46 32 87 BF 00 00 00
 (020.267908)  can0  068   [8]  0B 0E A1 55 3A 00 00 00
 (020.327834)  can0  067   [8]  00 69 40 87 BF 00 00 00
 (020.327962)  can0  068   [8]  00 0E A1 55 3A 00 00 00
 (020.347827)  can0  067   [8]  05 11 03 00 1B 03 00 00
 (020.347953)  can0  068   [8]  05 00 00 01 00 00 01 00
 (020.387836)  can0  067   [8]  0B DC 12 87 BF 00 00 00
 (020.387944)  can0  068   [8]  0B 0E A1 55 3A 00 00 00
 (020.447824)  can0  067   [8]  00 D7 3E 87 BF 00 00 00
 (020.447975)  can0  068   [8]  00 0E A1 55 3A 00 00 00
 (020.467821)  can0  067   [8]  05 2B 00 00 94 00 00 00
 (020.467932)  can0  068   [8]  05 00 00 01 00 00 01 00
 (020.507869)  can0  067   [8]  0B 07 D4 86 BF 00 00 00
 (020.507890)  can0  068   [8]  0B 0E A1 55 3A 00 00 00
 (020.567830)  can0  067   [8]  00 A0 3F 87 BF 00 00 00
 (020.567943)  can0  068   [8]  00 0E A1 55 3A 00 00 00
 (020.587831)  can0  067   [8]  05 9B 04 01 A6 04 01 00
 (020.587905)  can0  068   [8]  05 00 00 01 00 00 01 00
 (020.608145)  can0  068   [8]  0C 02 A0 07 00 32 00 80
 (020.627792)  can0  067   [8]  0B 5B 6C 86 BF 00 00 00
 (020.627932)  can0  068   [8]  0B 0E A1 55 3A 00 00 00
 (020.628087)  can0  068   [8]  12 80 66 01 02 01 00 03
 (020.687821)  can0  067   [8]  00 20 45 87 BF 00 00 00
 (020.687905)  can0  068   [8]  00 0E A1 55 3A 00 00 00
 (020.707802)  can0  067   [8]  05 AF 0B 01 A6 0B 01 00
 (020.707949)  can0  068   [8]  05 00 00 01 00 00 01 00
 (020.747866)  can0  067   [8]  0B A0 D1 85 BF 00 00 00
 (020.747885)  can0  068   [8]  0B 0E A1 55 3A 00 00 00
 (020.807838)  can0  067   [8]  00 7C 3C 87 BF 00 00 00
 (020.807854)  can0  068   [8]  00 8F E9 5B 3A 00 00 00
 (020.827749)  can0  067   [8]  05 9B 15 01 4B 15 01 00
 (020.827911)  can0  068   [8]  05 00 00 01 00 00 01 00
 (020.867774)  can0  067   [8]  0B DB F8 84 BF 00 00 00
 (020.867908)  can0  068   [8]  0B 0E A1 55 3A 00 00 00
 (020.927813)  can0  067   [8]  00 35 2B 87 BF 00 00 00
 (020.927849)  can0  068   [8]  00 0E A1 55 3A 00 00 00
 (020.947814)  can0  067   [8]  05 BE 21 01 A3 21 01 00
 (020.947849)  can0  068   [8]  05 00 00 01 00 00 01 00
 (020.987799)  can0  067   [8]  0B 8B DC 83 BF 00 00 00
 (020.987837)  can0  068   [8]  0B 0E A1 55 3A 00 00 00
 (021.047821)  can0  067   [8]  00 14 99 85 BF 00 00 00
 (021.047845)  can0  067   [8]  11 06 00 00 00 00 09 01
 (021.047847)  can0  067   [8]  12 80 67 00 01 01 00 00
 (021.047960)  can0  068   [8]  00 0D 10 49 3A 00 00 00
 (021.048094)  can0  068   [8]  11 00 00 00 00 00 11 03
 (021.067862)  can0  067   [8]  05 A4 0A 01 D3 0B 01 00
 (021.067882)  can0  067   [8]  0C 02 A1 92 12 00 70 7E
 (021.067884)  can0  068   [8]  05 00 00 01 00 00 01 00
 (021.107875)  can0  067   [8]  0B AF 7C 82 BF 00 00 00
 (021.107896)  can0  068   [8]  0B 0E A1 55 3A 00 00 00
 (021.167801)  can0  067   [8]  00 C0 8E 82 BF 00 00 00
 (021.167941)  can0  068   [8]  00 8F E9 5B 3A 00 00 00
 (021.187802)  can0  067   [8]  05 8F 09 01 73 09 01 00
 (021.187880)  can0  068   [8]  05 00 00 01 00 00 01 00
 (021.227815)  can0  067   [8]  0B 47 D9 80 BF 00 00 00
 (021.227921)  can0  068   [8]  0B 0E A1 55 3A 00 00 00
 (021.287863)  can0  067   [8]  00 9D BE 81 BF 00 00 00
 (021.287886)  can0  068   [8]  00 0E A1 55 3A 00 00 00
 (021.307818)  can0  067   [8]  05 73 12 01 0C 12 01 00
 (021.307877)  can0  068   [8]  05 00 00 01 00 00 01 00
 (021.347862)  can0  067   [8]  0B A9 E4 7D BF 00 00 00
 (021.347882)  can0  068   [8]  0B 0E A1 55 3A 00 00 00
 (021.407874)  can0  067   [8]  00 4D 36 7D BF 00 00 00
 (021.407891)  can0  068   [8]  00 0E A1 55 3A 00 00 00
 (021.427778)  can0  067   [8]  05 A3 05 01 50 05 01 00
 (021.427921)  can0  068   [8]  05 00 00 01 00 00 01 00
 (021.467790)  can0  067   [8]  0B 3F 86 79 BF 00 00 00
 (021.467918)  can0  068   [8]  0B 0E A1 55 3A 00 00 00
 (021.527858)  can0  067   [8]  00 F3 0E 7B BF 00 00 00
 (021.527878)  can0  068   [8]  00 0E A1 55 3A 00 00 00
 (021.547785)  can0  067   [8]  05 9E 14 01 AA 14 01 00
 (021.547921)  can0  068   [8]  05 00 00 01 00 00 01 00
 (021.587797)  can0  067   [8]  0B 99 B3 74 BF 00 00 00
 (021.587922)  can0  068   [8]  0B 0E A1 55 3A 00 00 00
 (021.608122)  can0  068   [8]  0C 02 A0 07 00 32 00 80
 (021.628124)  can0  068   [8]  12 80 66 01 02 01 00 03
 (021.647793)  can0  067   [8]  00 65 E7 73 BF 00 00 00
 (021.647933)  can0  068   [8]  00 0E A1 55 3A 00 00 00
 (021.667793)  can0  067   [8]  05 DE 01 01 DC 01 01 00
 (021.667927)  can0  068   [8]  05 00 00 01 00 00 01 00
 (021.707801)  can0  067   [8]  0B 93 53 6F BF 00 00 00
 (021.707961)  can0  068   [8]  0B 0E A1 55 3A 00 00 00
 (021.767801)  can0  067   [8]  00 97 95 70 BF 00 00 00
 (021.767945)  can0  068   [8]  00 0E A1 55 3A 00 00 00
 (021.787782)  can0  067   [8]  05 77 15 01 1A 18 01 00
 (021.787926)  can0  068   [8]  05 00 00 01 00 00 01 00
 (021.827818)  can0  067   [8]  0B E2 80 69 BF 00 00 00
 (021.827931)  can0  068   [8]  0B 0E A1 55 3A 00 00 00
 (021.887788)  can0  067   [8]  00 4B 48 68 BF 00 00 00
 (021.887926)  can0  068   [8]  00 0F 32 62 3A 00 00 00
 (021.907783)  can0  067   [8]  05 4F 04 01 DA 03 01 00
 (021.907937)  can0  068   [8]  05 00 00 01 00 00 01 00
 (021.947790)  can0  067   [8]  0B 84 51 63 BF 00 00 00
 (021.947932)  can0  068   [8]  0B 0E A1 55 3A 00 00 00
 (022.007792)  can0  067   [8]  00 83 BF 64 BF 00 00 00
 (022.007930)  can0  068   [8]  00 8F E9 5B 3A 00 00 00
 (022.027798)  can0  067   [8]  05 6F 13 01 A8 12 01 00
 (022.027930)  can0  068   [8]  05 00 00 01 00 00 01 00
 (022.047809)  can0  067   [8]  11 06 00 00 00 00 09 01
 (022.047829)  can0  067   [8]  12 80 67 00 01 01 00 00
 (022.047831)  can0  067   [8]  0C 02 A1 B6 F7 00 00 7E
 (022.047982)  can0  068   [8]  11 00 00 00 00 00 11 03
 (022.067838)  can0  067   [8]  0B 51 D8 5C BF 00 00 00
 (022.067857)  can0  068   [8]  0B 0E A1 55 3A 00 00 00
 (022.127847)  can0  067   [8]  00 C5 9F 5C BF 00 00 00
 (022.127872)  can0  068   [8]  00 8F E9 5B 3A 00 00 00
 (022.147817)  can0  067   [8]  05 54 0D 01 EE 0B 01 00
 (022.147851)  can0  068   [8]  05 00 00 01 00 00 01 00
 (022.187784)  can0  067   [8]  0B 4A 2B 56 BF 00 00 00
 (022.187923)  can0  068   [8]  0B 0E A1 55 3A 00 00 00
 (022.247813)  can0  067   [8]  00 A2 8C 55 BF 00 00 00
 (022.247883)  can0  068   [8]  00 0E A1 55 3A 00 00 00
 (022.267788)  can0  067   [8]  05 C2 02 01 D5 02 01 00
 (022.267931)  can0  068   [8]  05 00 00 01 00 00 01 00
 (022.307687)  can0  067   [8]  0B D6 5E 4F BF 00 00 00
 (022.307831)  can0  068   [8]  0B 0E A1 55 3A 00 00 00
 (022.367796)  can0  067   [8]  00 23 9C 50 BF 00 00 00
 (022.367908)  can0  068   [8]  00 8F E9 5B 3A 00 00 00
 (022.387785)  can0  067   [8]  05 FA 10 01 35 10 01 00
 (022.387818)  can0  068   [8]  05 00 00 01 00 00 01 00
 (022.427788)  can0  067   [8]  0B F6 88 48 BF 00 00 00
 (022.427824)  can0  068   [8]  0B 0E A1 55 3A 00 00 00
 (022.487837)  can0  067   [8]  00 8B 74 48 BF 00 00 00
 (022.487859)  can0  068   [8]  00 8F E9 5B 3A 00 00 00
 (022.507846)  can0  067   [8]  05 D4 0B 01 B1 0B 01 00
 (022.507867)  can0  068   [8]  05 00 00 01 00 00 01 00
 (022.547883)  can0  067   [8]  0B 84 B1 41 BF 00 00 00
 (022.547904)  can0  068   [8]  0B 0E A1 55 3A 00 00 00
 (022.607786)  can0  067   [8]  00 0D A8 40 BF 00 00 00
 (022.607828)  can0  068   [8]  00 8F E9 5B 3A 00 00 00
 (022.608066)  can0  068   [8]  0C 02 A0 07 00 32 00 80
 (022.627837)  can0  067   [8]  05 6F 00 01 CC 03 01 00
 (022.627857)  can0  068   [8]  05 00 00 01 00 00 01 00
 (022.628068)  can0  068   [8]  12 80 66 01 02 01 00 03
 (022.667786)  can0  067   [8]  0B 13 DA 3A BF 00 00 00
 (022.667897)  can0  068   [8]  0B 0E A1 55 3A 00 00 00
 (022.727819)  can0  067   [8]  00 CF 0A 3C BF 00 00 00
 (022.727839)  can0  068   [8]  00 0F 32 62 3A 00 00 00
 (022.747791)  can0  067   [8]  05 99 0D 01 07 0D 01 00
 (022.747830)  can0  068   [8]  05 00 00 01 00 00 01 00
 (022.787825)  can0  067   [8]  0B 7E F4 33 BF 00 00 00
 (022.787847)  can0  068   [8]  0B 0E A1 55 3A 00 00 00
 (022.847754)  can0  067   [8]  00 E8 13 34 BF 00 00 00
 (022.847892)  can0  068   [8]  00 8F E9 5B 3A 00 00 00
 (022.867772)  can0  067   [8]  05 BA 0A 01 E6 09 01 00
 (022.867897)  can0  068   [8]  05 00 00 01 00 00 01 00
 (022.907778)  can0  067   [8]  0B 2F 2B 2D BF 00 00 00
 (022.907953)  can0  068   [8]  0B 0E A1 55 3A 00 00 00
 (022.967776)  can0  067   [8]  00 E5 CC 2B BF 00 00 00
 (022.967907)  can0  068   [8]  00 8F 7A 68 3A 00 00 00
 (022.987768)  can0  067   [8]  05 EA 00 00 91 01 00 00
 (022.987917)  can0  068   [8]  05 00 00 01 00 00 01 00
 (023.027668)  can0  067   [8]  0B 50 55 26 BF 00 00 00
 (023.027927)  can0  068   [8]  0B 0E A1 55 3A 00 00 00
 (023.047676)  can0  067   [8]  11 06 00 00 00 00 09 01
 (023.047691)  can0  067   [8]  12 80 67 00 01 01 00 00
 (023.047810)  can0  067   [8]  0C 02 A1 A4 FF 00 00 7E
 (023.047943)  can0  068   [8]  11 00 00 00 00 00 11 03
 (023.087775)  can0  067   [8]  00 C7 5E 27 BF 00 00 00
 (023.087905)  can0  068   [8]  00 0E A1 55 3A 00 00 00
 (023.107776)  can0  067   [8]  05 C7 07 01 60 07 01 00
 (023.107941)  can0  068   [8]  05 00 00 01 00 00 01 00
 (023.147756)  can0  067   [8]  0B DE 7D 1F BF 00 00 00
 (023.147898)  can0  068   [8]  0B 0E A1 55 3A 00 00 00
 (023.207745)  can0  067   [8]  00 D8 B4 1F BF 00 00 00
 (023.207871)  can0  068   [8]  00 0F 32 62 3A 00 00 00
 (023.227617)  can0  067   [8]  05 51 09 01 EC 08 01 00
 (023.227882)  can0  068   [8]  05 00 00 01 00 00 01 00
 (023.267647)  can0  067   [8]  0B 6C A6 18 BF 00 00 00
 (023.267914)  can0  068   [8]  0B 0E A1 55 3A 00 00 00
 (023.327729)  can0  067   [8]  00 6F 22 17 BF 00 00 00
 (023.327851)  can0  068   [8]  00 0F 32 62 3A 00 00 00
 (023.347719)  can0  067   [8]  05 DA 01 00 57 02 00 00
 (023.347943)  can0  068   [8]  05 00 00 01 00 00 01 00
 (023.387802)  can0  067   [8]  0B FA CE 11 BF 00 00 00
 (023.387821)  can0  068   [8]  0B 0E A1 55 3A 00 00 00
 (023.447712)  can0  067   [8]  00 9D 99 12 BF 00 00 00
 (023.447870)  can0  068   [8]  00 0F 32 62 3A 00 00 00
 (023.467776)  can0  067   [8]  05 B5 01 01 DE 00 01 00
 (023.467810)  can0  068   [8]  05 00 00 01 00 00 01 00
 (023.507772)  can0  067   [8]  0B 88 F7 0A BF 00 00 00
 (023.507814)  can0  068   [8]  0B 0E A1 55 3A 00 00 00
 (023.567775)  can0  067   [8]  00 A7 31 0B BF 00 00 00
 (023.567897)  can0  068   [8]  00 8F 7A 68 3A 00 00 00
 (023.587783)  can0  067   [8]  05 FD 06 01 9A 06 01 00
 (023.587869)  can0  068   [8]  05 00 00 01 00 00 01 00
 (023.608112)  can0  068   [8]  0C 02 A0 07 00 32 00 80
 (023.627778)  can0  067   [8]  0B 16 20 04 BF 00 00 00
 (023.627860)  can0  068   [8]  0B 0E A1 55 3A 00 00 00
 (023.628019)  can0  068   [8]  12 80 66 01 02 01 00 03
 (023.687861)  can0  067   [8]  00 17 B2 02 BF 00 00 00
 (023.687883)  can0  068   [8]  00 10 C3 6E 3A 00 00 00
 (023.707764)  can0  067   [8]  05 EE 01 00 E3 01 00 00
 (023.707873)  can0  068   [8]  05 00 00 01 00 00 01 00
 (023.747759)  can0  067   [8]  0B 6E 94 FA BE 00 00 00
 (023.747795)  can0  068   [8]  0B 0E A1 55 3A 00 00 00
 (023.807809)  can0  067   [8]  00 15 28 FB BE 00 00 00
 (023.807830)  can0  068   [8]  00 8F 7A 68 3A 00 00 00
 (023.827763)  can0  067   [8]  05 96 04 00 80 05 00 00
 (023.827903)  can0  068   [8]  05 00 00 01 00 00 01 00
 (023.867808)  can0  067   [8]  0B 89 E5 EC BE 00 00 00
 (023.867830)  can0  068   [8]  0B 0E A1 55 3A 00 00 00
 (023.927859)  can0  067   [8]  00 55 7C ED BE 00 00 00
 (023.927881)  can0  068   [8]  00 8F 7A 68 3A 00 00 00
 (023.947767)  can0  067   [8]  05 86 05 01 7F 05 01 00
 (023.947820)  can0  068   [8]  05 00 00 01 00 00 01 00
 (023.987738)  can0  067   [8]  0B A6 36 DF BE 00 00 00
 (023.987864)  can0  068   [8]  0B 0E A1 55 3A 00 00 00
 (024.047758)  can0  067   [8]  00 12 7A DC BE 00 00 00
 (024.047776)  can0  067   [8]  11 06 00 00 00 00 09 01
 (024.047778)  can0  067   [8]  12 80 67 00 01 01 00 00
 (024.047928)  can0  068   [8]  00 10 C3 6E 3A 00 00 00
 (024.048069)  can0  068   [8]  11 00 00 00 00 00 11 03
 (024.067770)  can0  067   [8]  05 69 02 00 1C 03 00 00
 (024.067797)  can0  067   [8]  0C 02 A1 B6 FF 00 00 7E
 (024.067821)  can0  068   [8]  05 00 00 01 00 00 01 00
 (024.107824)  can0  067   [8]  0B 7C 6B D1 BE 00 00 00
 (024.107845)  can0  068   [8]  0B 0E A1 55 3A 00 00 00
 (024.167826)  can0  067   [8]  00 BB 66 D0 BE 00 00 00
 (024.167848)  can0  068   [8]  00 10 C3 6E 3A 00 00 00
 (024.187753)  can0  067   [8]  05 27 0A 00 31 0B 00 00
 (024.187870)  can0  068   [8]  05 00 00 01 00 00 01 00
 (024.227833)  can0  067   [8]  0B DF D8 C3 BE 00 00 00
 (024.227854)  can0  068   [8]  0B 0E A1 55 3A 00 00 00
 (024.287786)  can0  067   [8]  00 62 69 C4 BE 00 00 00
 (024.287827)  can0  068   [8]  00 8F 7A 68 3A 00 00 00
 (024.307775)  can0  067   [8]  05 B7 03 01 12 03 01 00
 (024.307881)  can0  068   [8]  05 00 00 01 00 00 01 00
 (024.347785)  can0  067   [8]  0B FB 29 B6 BE 00 00 00
 (024.347872)  can0  068   [8]  0B 0E A1 55 3A 00 00 00
 (024.407823)  can0  067   [8]  00 A9 B5 B3 BE 00 00 00
 (024.407846)  can0  068   [8]  00 10 C3 6E 3A 00 00 00
 (024.427793)  can0  067   [8]  05 1E 03 00 28 03 00 00
 (024.427847)  can0  068   [8]  05 00 00 01 00 00 01 00
 (024.467776)  can0  067   [8]  0B 3B 7E A8 BE 00 00 00
 (024.467831)  can0  068   [8]  0B 0E A1 55 3A 00 00 00
 (024.527868)  can0  067   [8]  00 F0 C7 A5 BE 00 00 00
 (024.527890)  can0  068   [8]  00 10 C3 6E 3A 00 00 00
 (024.547826)  can0  067   [8]  05 69 0D 00 08 0E 00 00
 (024.547846)  can0  068   [8]  05 00 00 01 00 00 01 00
 (024.587795)  can0  067   [8]  0B 58 CF 9A BE 00 00 00
 (024.587876)  can0  068   [8]  0B 0E A1 55 3A 00 00 00
 (024.608091)  can0  068   [8]  0C 02 A0 07 00 32 00 80
 (024.628101)  can0  068   [8]  12 80 66 01 02 01 00 03
 (024.647836)  can0  067   [8]  00 26 50 9B BE 00 00 00
 (024.647858)  can0  068   [8]  00 10 C3 6E 3A 00 00 00
 (024.667797)  can0  067   [8]  05 9A 01 01 90 00 01 00
 (024.667853)  can0  068   [8]  05 00 00 01 00 00 01 00
 (024.707832)  can0  067   [8]  0B 74 20 8D BE 00 00 00
 (024.707852)  can0  068   [8]  0B 0E A1 55 3A 00 00 00
 (024.767820)  can0  067   [8]  00 1C EE 8A BE 00 00 00
 (024.767841)  can0  068   [8]  00 10 C3 6E 3A 00 00 00
 (024.787793)  can0  067   [8]  05 22 03 00 A8 04 00 00
 (024.787815)  can0  068   [8]  05 00 00 01 00 00 01 00
 (024.827816)  can0  067   [8]  0B FB F5 7E BE 00 00 00
 (024.827836)  can0  068   [8]  0B 0E A1 55 3A 00 00 00
 (024.887825)  can0  067   [8]  00 7D 34 77 BE 00 00 00
 (024.887847)  can0  068   [8]  00 90 0B 75 3A 00 00 00
 (024.907779)  can0  067   [8]  05 76 0F 00 63 0E 00 00
 (024.907819)  can0  068   [8]  05 00 00 01 00 00 01 00
 (024.947773)  can0  067   [8]  0B 04 03 64 BE 00 00 00
 (024.947863)  can0  068   [8]  0B 0E A1 55 3A 00 00 00
 (025.007821)  can0  067   [8]  00 28 69 65 BE 00 00 00
 (025.007843)  can0  068   [8]  00 90 0B 75 3A 00 00 00
 (025.027783)  can0  067   [8]  05 E0 00 00 14 02 00 00
 (025.027821)  can0  068   [8]  05 00 00 01 00 00 01 00
 (025.047781)  can0  067   [8]  11 06 00 00 00 00 09 01
 (025.047803)  can0  067   [8]  12 80 67 00 01 01 00 00
 (025.047805)  can0  067   [8]  0C 02 A1 AD FF 00 00 7E
 (025.047867)  can0  068   [8]  11 00 00 00 00 00 11 03
 (025.067837)  can0  067   [8]  0B B2 B9 49 BE 00 00 00
 (025.067859)  can0  068   [8]  0B 0E A1 55 3A 00 00 00
 (025.127821)  can0  067   [8]  00 AB D2 45 BE 00 00 00
 (025.127843)  can0  068   [8]  00 10 C3 6E 3A 00 00 00
 (025.147819)  can0  067   [8]  05 00 06 00 C0 05 00 00
 (025.147841)  can0  068   [8]  05 00 00 01 00 00 01 00
 (025.187803)  can0  067   [8]  0B FE 71 30 BE 00 00 00
 (025.187823)  can0  068   [8]  0B 0E A1 55 3A 00 00 00
 (025.247794)  can0  067   [8]  00 31 4F 2A BE 00 00 00
 (025.247819)  can0  068   [8]  00 11 54 7B 3A 00 00 00
 (025.267797)  can0  067   [8]  05 D6 13 00 28 13 00 00
 (025.267821)  can0  068   [8]  05 00 00 01 00 00 01 00
 (025.307804)  can0  067   [8]  0B 4C 77 18 BE 00 00 00
 (025.307831)  can0  068   [8]  0B 0E A1 55 3A 00 00 00
 (025.367816)  can0  067   [8]  00 5B B9 1A BE 00 00 00
 (025.367838)  can0  068   [8]  00 11 54 7B 3A 00 00 00
 (025.387845)  can0  067   [8]  05 D5 02 00 F2 03 00 00
 (025.387867)  can0  068   [8]  05 00 00 01 00 00 01 00
 (025.427801)  can0  067   [8]  0B E0 FB 01 BE 00 00 00
 (025.427820)  can0  068   [8]  0B 0E A1 55 3A 00 00 00
 (025.487793)  can0  067   [8]  00 AD 8A F2 BD 00 00 00
 (025.487810)  can0  068   [8]  00 89 F2 83 3A 00 00 00
 (025.507815)  can0  067   [8]  05 80 13 00 83 13 00 00
 (025.507834)  can0  068   [8]  05 00 00 01 00 00 01 00
 (025.547704)  can0  067   [8]  0B 29 9E DB BD 00 00 00
 (025.547834)  can0  068   [8]  0B 0E A1 55 3A 00 00 00
 (025.607705)  can0  067   [8]  00 51 DD E3 BD 00 00 00
 (025.607844)  can0  068   [8]  00 11 54 7B 3A 00 00 00
 (025.607981)  can0  068   [8]  0C 02 A0 07 00 32 00 80
 (025.627694)  can0  067   [8]  05 5C 05 00 1C 07 00 00
 (025.627852)  can0  068   [8]  05 00 00 01 00 00 01 00
 (025.627985)  can0  068   [8]  12 80 66 01 02 01 00 03
 (025.667689)  can0  067   [8]  0B 4F 25 B7 BD 00 00 00
 (025.667864)  can0  068   [8]  0B 0E A1 55 3A 00 00 00
 (025.727717)  can0  067   [8]  00 0F F7 A5 BD 00 00 00
 (025.727879)  can0  068   [8]  00 90 0B 75 3A 00 00 00
 (025.747714)  can0  067   [8]  05 A1 16 00 45 16 00 00
 (025.747866)  can0  068   [8]  05 00 00 01 00 00 01 00
 (025.787716)  can0  067   [8]  0B 9B D8 96 BD 00 00 00
 (025.787823)  can0  068   [8]  0B 0E A1 55 3A 00 00 00
 (025.847725)  can0  067   [8]  00 45 5B 9E BD 00 00 00
 (025.847868)  can0  068   [8]  00 90 0B 75 3A 00 00 00
 (025.867716)  can0  067   [8]  05 B5 06 00 0A 09 00 00
 (025.867857)  can0  068   [8]  05 00 00 01 00 00 01 00
 (025.907734)  can0  067   [8]  0B 5C A2 75 BD 00 00 00
 (025.907877)  can0  068   [8]  0B 0E A1 55 3A 00 00 00
 (025.967715)  can0  067   [8]  00 99 AE 6D BD 00 00 00
 (025.967852)  can0  068   [8]  00 10 C3 6E 3A 00 00 00
 (025.987709)  can0  067   [8]  05 10 18 00 71 18 00 00
 (025.987856)  can0  068   [8]  05 00 00 01 00 00 01 00
 (026.027709)  can0  067   [8]  0B F0 04 46 BD 00 00 00
 (026.027856)  can0  068   [8]  0B 0E A1 55 3A 00 00 00
 (026.047723)  can0  067   [8]  11 06 00 00 00 00 09 01
 (026.047742)  can0  067   [8]  12 80 67 00 01 01 00 00
 (026.047744)  can0  067   [8]  0C 02 A1 B6 FA 00 00 7E
 (026.047905)  can0  068   [8]  11 00 00 00 00 00 11 03
 (026.087713)  can0  067   [8]  00 E5 D0 40 BD 00 00 00
 (026.087864)  can0  068   [8]  00 90 0B 75 3A 00 00 00
 (026.107712)  can0  067   [8]  05 83 11 00 E6 12 00 00
 (026.107857)  can0  068   [8]  05 00 00 01 00 00 01 00
 (026.147713)  can0  067   [8]  0B CD BF 1E BD 00 00 00
 (026.147865)  can0  068   [8]  0B 0E A1 55 3A 00 00 00
 (026.207727)  can0  067   [8]  00 8F B3 26 BD 00 00 00
 (026.207782)  can0  068   [8]  00 10 C3 6E 3A 00 00 00
 (026.227701)  can0  067   [8]  05 9A 0F 00 88 0F 00 00
 (026.227867)  can0  068   [8]  05 00 00 01 00 00 01 00
 (026.267772)  can0  067   [8]  0B 38 05 00 BD 00 00 00
 (026.267794)  can0  068   [8]  0B 0E A1 55 3A 00 00 00
 (026.327724)  can0  067   [8]  00 3B 1D 0B BD 00 00 00
 (026.327807)  can0  068   [8]  00 90 0B 75 3A 00 00 00
 (026.347761)  can0  067   [8]  05 04 11 00 74 10 00 00
 (026.347783)  can0  068   [8]  05 00 00 01 00 00 01 00
 (026.387770)  can0  067   [8]  0B 56 E1 D2 BC 00 00 00
 (026.387792)  can0  068   [8]  0B 0E A1 55 3A 00 00 00
 (026.447802)  can0  067   [8]  00 6A 49 DD BC 00 00 00
 (026.447829)  can0  068   [8]  00 10 C3 6E 3A 00 00 00
 (026.467783)  can0  067   [8]  05 B5 13 00 33 14 00 00
 (026.467806)  can0  068   [8]  05 00 00 01 00 00 01 00
 (026.507708)  can0  067   [8]  0B 18 A9 B3 BC 00 00 00
 (026.507851)  can0  068   [8]  0B 0E A1 55 3A 00 00 00
 (026.567685)  can0  067   [8]  00 60 7A BD BC 00 00 00
 (026.567829)  can0  068   [8]  00 10 C3 6E 3A 00 00 00
 (026.587655)  can0  067   [8]  05 9A 14 00 B8 14 00 00
 (026.587886)  can0  068   [8]  05 00 00 01 00 00 01 00
 (026.608033)  can0  068   [8]  0C 02 A0 07 00 32 00 80
 (026.627685)  can0  067   [8]  0B 43 D4 9F BC 00 00 00
 (026.627833)  can0  068   [8]  0B 0E A1 55 3A 00 00 00
 (026.627963)  can0  068   [8]  12 80 66 01 02 01 00 03
 (026.687727)  can0  067   [8]  00 FB 93 A2 BC 00 00 00
 (026.687833)  can0  068   [8]  00 10 C3 6E 3A 00 00 00
 (026.707676)  can0  067   [8]  05 19 17 00 85 17 00 00
 (026.707831)  can0  068   [8]  05 00 00 01 00 00 01 00
 (026.747724)  can0  067   [8]  0B 62 D5 94 BC 00 00 00
 (026.747829)  can0  068   [8]  0B 0E A1 55 3A 00 00 00
 (026.807682)  can0  067   [8]  00 71 9E 95 BC 00 00 00
 (026.807834)  can0  068   [8]  00 8F E9 5B 3A 00 00 00
 (026.827688)  can0  067   [8]  05 21 17 00 30 17 00 00
 (026.827836)  can0  068   [8]  05 00 00 01 00 00 01 00
 (026.867700)  can0  067   [8]  0B 01 1F 90 BC 00 00 00
 (026.867844)  can0  068   [8]  0B 0E A1 55 3A 00 00 00
 (026.927714)  can0  067   [8]  00 EA 39 95 BC 00 00 00
 (026.927823)  can0  068   [8]  00 0E A1 55 3A 00 00 00
 (026.947711)  can0  067   [8]  05 4D 16 00 27 16 00 00
 (026.947811)  can0  068   [8]  05 00 00 01 00 00 01 00
 (026.987690)  can0  067   [8]  0B AE 23 8F BC 00 00 00
 (026.987829)  can0  068   [8]  0B 0E A1 55 3A 00 00 00
 (027.047639)  can0  067   [8]  00 A6 07 95 BC 00 00 00
 (027.047678)  can0  067   [8]  11 06 00 00 00 00 29 01
 (027.047699)  can0  067   [8]  12 80 67 00 01 01 00 00
 (027.048032)  can0  068   [8]  00 0E A1 55 3A 00 00 00
 (027.048047)  can0  068   [8]  11 00 00 00 00 00 11 03
 (027.067704)  can0  067   [8]  05 16 1E 00 A8 1D 00 00
 (027.067725)  can0  067   [8]  0C 02 A1 AD 32 00 20 7E
 (027.067842)  can0  068   [8]  05 00 00 01 00 00 01 00
 (027.107718)  can0  067   [8]  0B 6A F1 8E BC 00 00 00
 (027.107858)  can0  068   [8]  0B 0E A1 55 3A 00 00 00
 (027.167714)  can0  067   [8]  00 2E 6C 95 BC 00 00 00
 (027.167837)  can0  068   [8]  00 8F E9 5B 3A 00 00 00
 (027.187702)  can0  067   [8]  05 D6 21 00 CF 21 00 00
 (027.187843)  can0  068   [8]  05 00 00 01 00 00 01 00
 (027.227681)  can0  067   [8]  0B 6A F1 8E BC 00 00 00
 (027.227835)  can0  068   [8]  0B 0E A1 55 3A 00 00 00
 (027.287717)  can0  067   [8]  00 EA 39 95 BC 00 00 00
 (027.287850)  can0  068   [8]  00 8F E9 5B 3A 00 00 00
 (027.307666)  can0  067   [8]  05 C2 21 00 AA 21 00 00
 (027.307842)  can0  068   [8]  05 00 00 01 00 00 01 00
 (027.347694)  can0  067   [8]  0B 6A F1 8E BC 00 00 00
 (027.347849)  can0  068   [8]  0B 0E A1 55 3A 00 00 00
 (027.407692)  can0  067   [8]  00 EA 39 95 BC 00 00 00
 (027.407838)  can0  068   [8]  00 0E A1 55 3A 00 00 00
 (027.427688)  can0  067   [8]  05 E0 21 00 D8 21 00 00
 (027.427839)  can0  068   [8]  05 00 00 01 00 00 01 00
 (027.467667)  can0  067   [8]  0B 6A F1 8E BC 00 00 00
 (027.467838)  can0  068   [8]  0B 0E A1 55 3A 00 00 00
 (027.527701)  can0  067   [8]  00 A6 07 95 BC 00 00 00
 (027.527839)  can0  068   [8]  00 0E A1 55 3A 00 00 00
 (027.547697)  can0  067   [8]  05 CC 21 00 00 23 00 00
 (027.547841)  can0  068   [8]  05 00 00 01 00 00 01 00
 (027.587711)  can0  067   [8]  0B 6A F1 8E BC 00 00 00
 (027.587849)  can0  068   [8]  0B 0E A1 55 3A 00 00 00
 (027.608058)  can0  068   [8]  0C 02 A0 07 00 32 00 80
 (027.628063)  can0  068   [8]  12 80 66 01 02 01 00 03
 (027.647738)  can0  067   [8]  00 62 D5 94 BC 00 00 00
 (027.647760)  can0  068   [8]  00 8F E9 5B 3A 00 00 00
 (027.667712)  can0  067   [8]  05 C2 21 00 06 22 00 00
 (027.667843)  can0  068   [8]  05 00 00 01 00 00 01 00
 (027.707662)  can0  067   [8]  0B 6A F1 8E BC 00 00 00
 (027.707806)  can0  068   [8]  0B 0E A1 55 3A 00 00 00
 (027.767691)  can0  067   [8]  00 2E 6C 95 BC 00 00 00
 (027.767789)  can0  068   [8]  00 0E A1 55 3A 00 00 00
 (027.787675)  can0  067   [8]  05 C2 21 00 0F 22 00 00
 (027.787806)  can0  068   [8]  05 00 00 01 00 00 01 00
 (027.827589)  can0  067   [8]  0B 6A F1 8E BC 00 00 00
 (027.827841)  can0  068   [8]  0B 0E A1 55 3A 00 00 00
 (027.887712)  can0  067   [8]  00 EA 39 95 BC 00 00 00
 (027.887785)  can0  068   [8]  00 8F E9 5B 3A 00 00 00
 (027.907707)  can0  067   [8]  05 EA 21 00 E1 21 00 00
 (027.907859)  can0  068   [8]  05 00 00 01 00 00 01 00
 (027.947736)  can0  067   [8]  0B 6A F1 8E BC 00 00 00
 (027.947763)  can0  068   [8]  0B 0E A1 55 3A 00 00 00
 (028.007698)  can0  067   [8]  00 A6 07 95 BC 00 00 00
 (028.007741)  can0  068   [8]  00 8E 58 4F 3A 00 00 00
 (028.027706)  can0  067   [8]  05 D6 21 00 F4 21 00 00
 (028.027848)  can0  068   [8]  05 00 00 01 00 00 01 00
 (028.047712)  can0  067   [8]  11 06 00 00 00 00 29 01
 (028.047733)  can0  067   [8]  12 80 67 00 01 01 00 00
 (028.047735)  can0  067   [8]  0C 02 A1 AD 00 00 70 20
 (028.047856)  can0  068   [8]  11 00 00 00 00 00 11 03
 (028.067710)  can0  067   [8]  0B 6A F1 8E BC 00 00 00
 (028.067840)  can0  068   [8]  0B 0E A1 55 3A 00 00 00
 (028.127693)  can0  067   [8]  00 EA 39 95 BC 00 00 00
 (028.127771)  can0  068   [8]  00 0E A1 55 3A 00 00 00
 (028.147653)  can0  067   [8]  05 D6 21 00 C5 21 00 00
 (028.147820)  can0  068   [8]  05 00 00 01 00 00 01 00
 (028.187687)  can0  067   [8]  0B 6A F1 8E BC 00 00 00
 (028.187813)  can0  068   [8]  0B 0E A1 55 3A 00 00 00
 (028.247652)  can0  067   [8]  00 A6 07 95 BC 00 00 00
 (028.247810)  can0  068   [8]  00 0E A1 55 3A 00 00 00
 (028.267653)  can0  067   [8]  05 CC 21 00 CF 21 00 00
 (028.267834)  can0  068   [8]  05 00 00 01 00 00 01 00
 (028.307660)  can0  067   [8]  0B 6A F1 8E BC 00 00 00
 (028.307816)  can0  068   [8]  0B 0E A1 55 3A 00 00 00
 (028.367687)  can0  067   [8]  00 71 9E 95 BC 00 00 00
 (028.367784)  can0  068   [8]  00 0E A1 55 3A 00 00 00
 (028.387672)  can0  067   [8]  05 D6 21 00 C5 21 00 00
 (028.387802)  can0  068   [8]  05 00 00 01 00 00 01 00
 (028.427687)  can0  067   [8]  0B 6A F1 8E BC 00 00 00
 (028.427792)  can0  068   [8]  0B 0E A1 55 3A 00 00 00
 (028.487688)  can0  067   [8]  00 EA 39 95 BC 00 00 00
 (028.487780)  can0  068   [8]  00 0E A1 55 3A 00 00 00
 (028.507691)  can0  067   [8]  05 D6 21 00 D8 21 00 00
 (028.507837)  can0  068   [8]  05 00 00 01 00 00 01 00
 (028.547679)  can0  067   [8]  0B 6A F1 8E BC 00 00 00
 (028.547804)  can0  068   [8]  0B 0E A1 55 3A 00 00 00
 (028.607684)  can0  067   [8]  00 62 D5 94 BC 00 00 00
 (028.607821)  can0  068   [8]  00 0E A1 55 3A 00 00 00
 (028.607945)  can0  068   [8]  0C 02 A0 07 00 32 00 80
 (028.627677)  can0  067   [8]  05 CC 21 00 E1 21 00 00
 (028.627844)  can0  068   [8]  05 00 00 01 00 00 01 00
 (028.627947)  can0  068   [8]  12 80 66 01 02 01 00 03
 (028.667699)  can0  067   [8]  0B 6A F1 8E BC 00 00 00
 (028.667736)  can0  068   [8]  0B 0E A1 55 3A 00 00 00
 (028.727697)  can0  067   [8]  00 A6 07 95 BC 00 00 00
 (028.727790)  can0  068   [8]  00 8F E9 5B 3A 00 00 00
 (028.747674)  can0  067   [8]  05 E0 21 00 AA 21 00 00
 (028.747811)  can0  068   [8]  05 00 00 01 00 00 01 00
 (028.787657)  can0  067   [8]  0B 6A F1 8E BC 00 00 00
 (028.787813)  can0  068   [8]  0B 0E A1 55 3A 00 00 00
 (028.847708)  can0  067   [8]  00 EA 39 95 BC 00 00 00
 (028.847778)  can0  068   [8]  00 0E A1 55 3A 00 00 00
 (028.867684)  can0  067   [8]  05 CC 21 00 A1 21 00 00
 (028.867810)  can0  068   [8]  05 00 00 01 00 00 01 00
 (028.907703)  can0  067   [8]  0B 6A F1 8E BC 00 00 00
 (028.907741)  can0  068   [8]  0B 0E A1 55 3A 00 00 00
 (028.967599)  can0  067   [8]  00 EA 39 95 BC 00 00 00
 (028.967856)  can0  068   [8]  00 8F E9 5B 3A 00 00 00
 (028.987652)  can0  067   [8]  05 D6 21 00 D8 21 00 00
 (028.987823)  can0  068   [8]  05 00 00 01 00 00 01 00
 (029.027633)  can0  067   [8]  0B 6A F1 8E BC 00 00 00
 (029.027783)  can0  068   [8]  0B 0E A1 55 3A 00 00 00
 (029.047683)  can0  067   [8]  11 06 00 00 00 00 29 01
 (029.047703)  can0  067   [8]  12 80 67 00 01 01 00 00
 (029.047704)  can0  067   [8]  0C 02 A1 AD 00 00 70 20
 (029.047828)  can0  068   [8]  11 00 00 00 00 00 11 03
 (029.087672)  can0  067   [8]  00 62 D5 94 BC 00 00 00
 (029.087770)  can0  068   [8]  00 0E A1 55 3A 00 00 00
 (029.107619)  can0  067   [8]  05 D6 21 00 B3 21 00 00
 (029.107792)  can0  068   [8]  05 00 00 01 00 00 01 00
 (029.147673)  can0  067   [8]  0B 6A F1 8E BC 00 00 00
 (029.147773)  can0  068   [8]  0B 0E A1 55 3A 00 00 00
 (029.207660)  can0  067   [8]  00 A6 07 95 BC 00 00 00
 (029.207791)  can0  068   [8]  00 0E A1 55 3A 00 00 00
 (029.227623)  can0  067   [8]  05 C2 21 00 AA 21 00 00
 (029.227779)  can0  068   [8]  05 00 00 01 00 00 01 00
 (029.267639)  can0  067   [8]  0B 6A F1 8E BC 00 00 00
 (029.267766)  can0  068   [8]  0B 0E A1 55 3A 00 00 00
 (029.327647)  can0  067   [8]  00 EA 39 95 BC 00 00 00
 (029.327827)  can0  068   [8]  00 0E A1 55 3A 00 00 00
 (029.347676)  can0  067   [8]  05 D6 21 00 CF 21 00 00
 (029.347820)  can0  068   [8]  05 00 00 01 00 00 01 00
 (029.387648)  can0  067   [8]  0B 6A F1 8E BC 00 00 00
 (029.387776)  can0  068   [8]  0B 0E A1 55 3A 00 00 00
 (029.447631)  can0  067   [8]  00 EA 39 95 BC 00 00 00
 (029.447802)  can0  068   [8]  00 0E A1 55 3A 00 00 00
 (029.467561)  can0  067   [8]  05 D6 21 00 C5 21 00 00
 (029.467819)  can0  068   [8]  05 00 00 01 00 00 01 00
 (029.507656)  can0  067   [8]  0B 6A F1 8E BC 00 00 00
 (029.507791)  can0  068   [8]  0B 0E A1 55 3A 00 00 00
 (029.567656)  can0  067   [8]  00 A6 07 95 BC 00 00 00
 (029.567791)  can0  068   [8]  00 0E A1 55 3A 00 00 00
 (029.587651)  can0  067   [8]  05 CC 21 00 AA 21 00 00
 (029.587802)  can0  068   [8]  05 00 00 01 00 00 01 00
 (029.608002)  can0  068   [8]  0C 02 A0 07 00 32 00 80
 (029.627629)  can0  067   [8]  0B 6A F1 8E BC 00 00 00
 (029.627800)  can0  068   [8]  0B 0E A1 55 3A 00 00 00
 (029.627931)  can0  068   [8]  12 80 66 01 02 01 00 03
 (029.687691)  can0  067   [8]  00 A6 07 95 BC 00 00 00
 (029.687732)  can0  068   [8]  00 0E A1 55 3A 00 00 00
 (029.707660)  can0  067   [8]  05 E0 21 00 FD 21 00 00
 (029.707797)  can0  068   [8]  05 00 00 01 00 00 01 00
 (029.747637)  can0  067   [8]  0B 6A F1 8E BC 00 00 00
 (029.747810)  can0  068   [8]  0B 0E A1 55 3A 00 00 00
 (029.807682)  can0  067   [8]  00 EA 39 95 BC 00 00 00
 (029.807760)  can0  068   [8]  00 8F E9 5B 3A 00 00 00
 (029.827653)  can0  067   [8]  05 CC 21 00 D8 21 00 00
 (029.827810)  can0  068   [8]  05 00 00 01 00 00 01 00
 (029.867675)  can0  067   [8]  0B 6A F1 8E BC 00 00 00
 (029.867799)  can0  068   [8]  0B 0E A1 55 3A 00 00 00
 (029.927681)  can0  067   [8]  00 2E 6C 95 BC 00 00 00
 (029.927750)  can0  068   [8]  00 0E A1 55 3A 00 00 00
 (029.947677)  can0  067   [8]  05 D6 21 00 EA 21 00 00
 (029.947718)  can0  068   [8]  05 00 00 01 00 00 01 00
 (029.987640)  can0  067   [8]  0B 6A F1 8E BC 00 00 00
 (029.987793)  can0  068   [8]  0B 0E A1 55 3A 00 00 00
 (030.043997)  can0  064   [8]  67 01 92 0A 86 BF 06 00
 (030.046037)  can0  064   [8]  68 01 92 0A 86 3F 06 00
 (030.047527)  can0  067   [8]  00 EA 39 95 BC 00 00 00
 (030.047552)  can0  067   [8]  11 06 00 00 00 00 09 01
 (030.047622)  can0  067   [8]  12 80 67 00 01 01 00 00
 (030.047816)  can0  068   [8]  00 0E A1 55 3A 00 00 00
 (030.047872)  can0  068   [8]  11 00 00 00 00 00 11 03
 (030.067585)  can0  067   [8]  05 E2 28 00 69 28 00 00
 (030.067615)  can0  067   [8]  0C 02 A1 AD 00 00 70 20
 (030.067789)  can0  068   [8]  05 00 00 01 00 00 01 00
 (030.107679)  can0  067   [8]  0B EA 39 95 BC 00 00 00
 (030.107770)  can0  068   [8]  0B 0E A1 55 3A 00 00 00
 (030.167652)  can0  067   [8]  00 C6 99 96 BC 00 00 00
 (030.167744)  can0  068   [8]  00 0E A1 55 3A 00 00 00
 (030.187632)  can0  067   [8]  05 7F 2F 00 72 2F 00 00
 (030.187747)  can0  068   [8]  05 00 00 01 00 00 01 00
 (030.227650)  can0  067   [8]  0B 1A 95 97 BC 00 00 00
 (030.227748)  can0  068   [8]  0B 0E A1 55 3A 00 00 00
 (030.287566)  can0  067   [8]  00 82 67 96 BC 00 00 00
 (030.287770)  can0  068   [8]  00 0E A1 55 3A 00 00 00
 (030.307646)  can0  067   [8]  05 3C 31 00 5F 32 00 00
 (030.307754)  can0  068   [8]  05 00 00 01 00 00 01 00
 (030.347716)  can0  067   [8]  0B 87 06 A0 BC 00 00 00
 (030.347763)  can0  068   [8]  0B 0E A1 55 3A 00 00 00
 (030.407696)  can0  067   [8]  00 D6 62 97 BC 00 00 00
 (030.407732)  can0  068   [8]  00 8F E9 5B 3A 00 00 00
 (030.427635)  can0  067   [8]  05 A7 34 00 A5 34 00 00
 (030.427756)  can0  068   [8]  05 00 00 01 00 00 01 00
 (030.467672)  can0  067   [8]  0B 08 E0 B2 BC 00 00 00
 (030.467783)  can0  068   [8]  0B 0E A1 55 3A 00 00 00
 (030.527610)  can0  067   [8]  00 6E 90 98 BC 00 00 00
 (030.527707)  can0  068   [8]  00 8F E9 5B 3A 00 00 00
 (030.547632)  can0  067   [8]  05 7E 3A 00 58 3A 00 00
 (030.547708)  can0  068   [8]  05 00 00 01 00 00 01 00
 (030.587608)  can0  067   [8]  0B EE 0E D4 BC 00 00 00
 (030.587711)  can0  068   [8]  0B 0E A1 55 3A 00 00 00
 (030.607982)  can0  068   [8]  0C 02 A0 07 00 32 00 80
 (030.627960)  can0  068   [8]  12 80 66 01 02 01 00 03
 (030.647634)  can0  067   [8]  00 06 BE 99 BC 00 00 00
 (030.647713)  can0  068   [8]  00 8F 7A 68 3A 00 00 00
 (030.667635)  can0  067   [8]  05 BB 43 00 66 43 00 00
 (030.667712)  can0  068   [8]  05 00 00 01 00 00 01 00
 (030.707604)  can0  067   [8]  0B 89 F2 03 BD 00 00 00
 (030.707712)  can0  068   [8]  0B 0E A1 55 3A 00 00 00
 (030.767654)  can0  067   [8]  00 E2 1D 9B BC 00 00 00
 (030.767868)  can0  068   [8]  00 8F 7A 68 3A 00 00 00
 (030.787622)  can0  067   [8]  05 CB 50 00 A2 57 00 00
 (030.787773)  can0  068   [8]  05 00 00 01 00 00 01 00
 (030.827654)  can0  067   [8]  0B 7B DC 28 BD 00 00 00
 (030.827772)  can0  068   [8]  0B 0E A1 55 3A 00 00 00
 (030.887639)  can0  067   [8]  00 5B 4A A7 BC 00 00 00
 (030.887770)  can0  068   [8]  00 90 0B 75 3A 00 00 00
 (030.907630)  can0  067   [8]  05 12 60 00 D4 5F 00 00
 (030.907770)  can0  068   [8]  05 00 00 01 00 00 01 00
 (030.947640)  can0  067   [8]  0B B4 10 59 BD 00 00 00
 (030.947779)  can0  068   [8]  0B 0E A1 55 3A 00 00 00
 (031.007637)  can0  067   [8]  00 74 C0 AE BC 00 00 00
 (031.007775)  can0  068   [8]  00 90 0B 75 3A 00 00 00
 (031.027464)  can0  067   [8]  05 03 75 00 DF 74 00 00
 (031.027787)  can0  068   [8]  05 00 00 01 00 00 01 00
 (031.047653)  can0  067   [8]  11 06 00 00 00 00 09 01
 (031.047671)  can0  067   [8]  12 80 67 00 01 01 00 00
 (031.047673)  can0  067   [8]  0C 02 A1 92 03 00 70 74
 (031.047760)  can0  068   [8]  11 00 00 00 00 00 11 03
 (031.067646)  can0  067   [8]  0B BD 60 8A BD 00 00 00
 (031.067784)  can0  068   [8]  0B 0E A1 55 3A 00 00 00
 (031.127641)  can0  067   [8]  00 D0 9E EB BC 00 00 00
 (031.127775)  can0  068   [8]  00 0A CC 96 3A 00 00 00
 (031.147630)  can0  067   [8]  05 0A 77 00 42 6E 00 00
 (031.147778)  can0  068   [8]  05 00 00 01 00 00 01 00
 (031.187652)  can0  067   [8]  0B 41 DE AD BD 00 00 00
 (031.187777)  can0  068   [8]  0B 0E A1 55 3A 00 00 00
 (031.247605)  can0  067   [8]  00 38 71 EA BD 00 00 00
 (031.247774)  can0  068   [8]  00 8F 7A 68 3A 00 00 00
 (031.267616)  can0  067   [8]  05 C3 11 00 69 12 00 00
 (031.267777)  can0  068   [8]  05 00 00 01 00 00 01 00
 (031.307557)  can0  067   [8]  0B 7B 0D D7 BD 00 00 00
 (031.307791)  can0  068   [8]  0B 0E A1 55 3A 00 00 00
 (031.367648)  can0  067   [8]  00 19 6B EE BD 00 00 00
 (031.367726)  can0  068   [8]  00 48 CE 80 3A 00 00 00
 (031.387638)  can0  067   [8]  05 0B 38 00 8B 37 00 00
 (031.387776)  can0  068   [8]  05 00 00 01 00 00 01 00
